(1790000000.000000) vcan0 100#0000000000000000
(1790000000.000000) vcan0 101#800C000000000000
(1790000000.000000) vcan0 102#A8FD000000000000
(1790000000.000000) vcan0 110#0000000000000000
(1790000000.000000) vcan0 120#0300000000000000
(1790000000.000000) vcan0 121#0200000000000000
(1790000000.000000) vcan0 200#8000000000000000
(1790000000.000000) vcan0 201#8400000000000000
(1790000000.000000) vcan0 202#7C00000000000000
(1790000000.000000) vcan0 203#2300000000000000
(1790000000.000000) vcan0 210#8E00000000000000
(1790000000.000000) vcan0 220#7C00000000000000
(1790000000.000000) vcan0 221#B501000000000000
(1790000000.000000) vcan0 222#4E00000000000000
(1790000000.000000) vcan0 230#94991C0000000000
(1790000000.000000) vcan0 231#B501000000000000
(1790000000.000000) vcan0 232#0019000000000000
(1790000000.000000) vcan0 240#7300000000000000
(1790000000.000000) vcan0 241#7300000000000000
(1790000000.000000) vcan0 242#6E00000000000000
(1790000000.000000) vcan0 243#6E00000000000000
(1790000000.000000) vcan0 18FF0100#7000000000000000
(1790000000.020000) vcan0 100#0000000000000000
(1790000000.020000) vcan0 101#800C000000000000
(1790000000.040000) vcan0 100#0000000000000000
(1790000000.040000) vcan0 101#800C000000000000
(1790000000.050000) vcan0 102#A8FD000000000000
(1790000000.060000) vcan0 100#0000000000000000
(1790000000.060000) vcan0 101#800C000000000000
(1790000000.080000) vcan0 100#0000000000000000
(1790000000.080000) vcan0 101#800C000000000000
(1790000000.100000) vcan0 100#0000000000000000
(1790000000.100000) vcan0 101#800C000000000000
(1790000000.100000) vcan0 102#A8FD000000000000
(1790000000.100000) vcan0 110#0000000000000000
(1790000000.100000) vcan0 120#0300000000000000
(1790000000.100000) vcan0 203#2300000000000000
(1790000000.120000) vcan0 100#0000000000000000
(1790000000.120000) vcan0 101#800C000000000000
(1790000000.140000) vcan0 100#0000000000000000
(1790000000.140000) vcan0 101#800C000000000000
(1790000000.150000) vcan0 102#A8FD000000000000
(1790000000.160000) vcan0 100#0000000000000000
(1790000000.160000) vcan0 101#800C000000000000
(1790000000.180000) vcan0 100#0000000000000000
(1790000000.180000) vcan0 101#800C000000000000
(1790000000.200000) vcan0 100#0000000000000000
(1790000000.200000) vcan0 101#800C000000000000
(1790000000.200000) vcan0 102#A8FD000000000000
(1790000000.200000) vcan0 110#0000000000000000
(1790000000.200000) vcan0 120#0300000000000000
(1790000000.200000) vcan0 121#0200000000000000
(1790000000.200000) vcan0 203#2300000000000000
(1790000000.220000) vcan0 100#0000000000000000
(1790000000.220000) vcan0 101#800C000000000000
(1790000000.240000) vcan0 100#0000000000000000
(1790000000.240000) vcan0 101#800C000000000000
(1790000000.250000) vcan0 102#A8FD000000000000
(1790000000.260000) vcan0 100#0000000000000000
(1790000000.260000) vcan0 101#800C000000000000
(1790000000.280000) vcan0 100#0000000000000000
(1790000000.280000) vcan0 101#800C000000000000
(1790000000.300000) vcan0 100#0000000000000000
(1790000000.300000) vcan0 101#800C000000000000
(1790000000.300000) vcan0 102#A8FD000000000000
(1790000000.300000) vcan0 110#0000000000000000
(1790000000.300000) vcan0 120#0300000000000000
(1790000000.300000) vcan0 203#2300000000000000
(1790000000.320000) vcan0 100#0000000000000000
(1790000000.320000) vcan0 101#800C000000000000
(1790000000.340000) vcan0 100#0000000000000000
(1790000000.340000) vcan0 101#800C000000000000
(1790000000.350000) vcan0 102#A8FD000000000000
(1790000000.360000) vcan0 100#0000000000000000
(1790000000.360000) vcan0 101#800C000000000000
(1790000000.380000) vcan0 100#0000000000000000
(1790000000.380000) vcan0 101#800C000000000000
(1790000000.400000) vcan0 100#0000000000000000
(1790000000.400000) vcan0 101#800C000000000000
(1790000000.400000) vcan0 102#A8FD000000000000
(1790000000.400000) vcan0 110#0000000000000000
(1790000000.400000) vcan0 120#0300000000000000
(1790000000.400000) vcan0 121#0200000000000000
(1790000000.400000) vcan0 203#2300000000000000
(1790000000.420000) vcan0 100#0000000000000000
(1790000000.420000) vcan0 101#800C000000000000
(1790000000.440000) vcan0 100#0000000000000000
(1790000000.440000) vcan0 101#800C000000000000
(1790000000.450000) vcan0 102#A8FD000000000000
(1790000000.460000) vcan0 100#0000000000000000
(1790000000.460000) vcan0 101#800C000000000000
(1790000000.480000) vcan0 100#0000000000000000
(1790000000.480000) vcan0 101#800C000000000000
(1790000000.500000) vcan0 100#0000000000000000
(1790000000.500000) vcan0 101#800C000000000000
(1790000000.500000) vcan0 102#A8FD000000000000
(1790000000.500000) vcan0 110#0000000000000000
(1790000000.500000) vcan0 120#0300000000000000
(1790000000.500000) vcan0 200#8000000000000000
(1790000000.500000) vcan0 201#8400000000000000
(1790000000.500000) vcan0 203#2300000000000000
(1790000000.500000) vcan0 210#8E00000000000000
(1790000000.520000) vcan0 100#0000000000000000
(1790000000.520000) vcan0 101#800C000000000000
(1790000000.540000) vcan0 100#0000000000000000
(1790000000.540000) vcan0 101#800C000000000000
(1790000000.550000) vcan0 102#A8FD000000000000
(1790000000.560000) vcan0 100#0000000000000000
(1790000000.560000) vcan0 101#800C000000000000
(1790000000.580000) vcan0 100#0000000000000000
(1790000000.580000) vcan0 101#800C000000000000
(1790000000.600000) vcan0 100#0000000000000000
(1790000000.600000) vcan0 101#800C000000000000
(1790000000.600000) vcan0 102#A8FD000000000000
(1790000000.600000) vcan0 110#0000000000000000
(1790000000.600000) vcan0 120#0300000000000000
(1790000000.600000) vcan0 121#0200000000000000
(1790000000.600000) vcan0 203#2300000000000000
(1790000000.620000) vcan0 100#0000000000000000
(1790000000.620000) vcan0 101#800C000000000000
(1790000000.640000) vcan0 100#0000000000000000
(1790000000.640000) vcan0 101#800C000000000000
(1790000000.650000) vcan0 102#A8FD000000000000
(1790000000.660000) vcan0 100#0000000000000000
(1790000000.660000) vcan0 101#800C000000000000
(1790000000.680000) vcan0 100#0000000000000000
(1790000000.680000) vcan0 101#800C000000000000
(1790000000.700000) vcan0 100#0000000000000000
(1790000000.700000) vcan0 101#800C000000000000
(1790000000.700000) vcan0 102#A8FD000000000000
(1790000000.700000) vcan0 110#0000000000000000
(1790000000.700000) vcan0 120#0300000000000000
(1790000000.700000) vcan0 203#2300000000000000
(1790000000.720000) vcan0 100#0000000000000000
(1790000000.720000) vcan0 101#800C000000000000
(1790000000.740000) vcan0 100#0000000000000000
(1790000000.740000) vcan0 101#800C000000000000
(1790000000.750000) vcan0 102#A8FD000000000000
(1790000000.760000) vcan0 100#0000000000000000
(1790000000.760000) vcan0 101#800C000000000000
(1790000000.780000) vcan0 100#0000000000000000
(1790000000.780000) vcan0 101#800C000000000000
(1790000000.800000) vcan0 100#0000000000000000
(1790000000.800000) vcan0 101#800C000000000000
(1790000000.800000) vcan0 102#A8FD000000000000
(1790000000.800000) vcan0 110#0000000000000000
(1790000000.800000) vcan0 120#0300000000000000
(1790000000.800000) vcan0 121#0200000000000000
(1790000000.800000) vcan0 203#2300000000000000
(1790000000.820000) vcan0 100#0000000000000000
(1790000000.820000) vcan0 101#800C000000000000
(1790000000.840000) vcan0 100#0000000000000000
(1790000000.840000) vcan0 101#800C000000000000
(1790000000.850000) vcan0 102#A8FD000000000000
(1790000000.860000) vcan0 100#0000000000000000
(1790000000.860000) vcan0 101#800C000000000000
(1790000000.880000) vcan0 100#0000000000000000
(1790000000.880000) vcan0 101#800C000000000000
(1790000000.900000) vcan0 100#0000000000000000
(1790000000.900000) vcan0 101#800C000000000000
(1790000000.900000) vcan0 102#A8FD000000000000
(1790000000.900000) vcan0 110#0000000000000000
(1790000000.900000) vcan0 120#0300000000000000
(1790000000.900000) vcan0 203#2300000000000000
(1790000000.920000) vcan0 100#0000000000000000
(1790000000.920000) vcan0 101#800C000000000000
(1790000000.940000) vcan0 100#0000000000000000
(1790000000.940000) vcan0 101#800C000000000000
(1790000000.950000) vcan0 102#A8FD000000000000
(1790000000.960000) vcan0 100#0000000000000000
(1790000000.960000) vcan0 101#800C000000000000
(1790000000.980000) vcan0 100#0000000000000000
(1790000000.980000) vcan0 101#800C000000000000
(1790000001.000000) vcan0 100#0000000000000000
(1790000001.000000) vcan0 101#800C000000000000
(1790000001.000000) vcan0 102#A8FD000000000000
(1790000001.000000) vcan0 110#0000000000000000
(1790000001.000000) vcan0 120#0300000000000000
(1790000001.000000) vcan0 121#0200000000000000
(1790000001.000000) vcan0 200#8000000000000000
(1790000001.000000) vcan0 201#8400000000000000
(1790000001.000000) vcan0 202#7C00000000000000
(1790000001.000000) vcan0 203#2300000000000000
(1790000001.000000) vcan0 210#8E00000000000000
(1790000001.000000) vcan0 220#7C00000000000000
(1790000001.000000) vcan0 221#B501000000000000
(1790000001.000000) vcan0 222#4E00000000000000
(1790000001.000000) vcan0 230#94991C0000000000
(1790000001.000000) vcan0 231#B501000000000000
(1790000001.000000) vcan0 232#0019000000000000
(1790000001.000000) vcan0 240#7300000000000000
(1790000001.000000) vcan0 241#7300000000000000
(1790000001.000000) vcan0 242#6E00000000000000
(1790000001.000000) vcan0 243#6E00000000000000
(1790000001.000000) vcan0 18FF0100#7000000000000000
(1790000001.020000) vcan0 100#0000000000000000
(1790000001.020000) vcan0 101#800C000000000000
(1790000001.040000) vcan0 100#0000000000000000
(1790000001.040000) vcan0 101#800C000000000000
(1790000001.050000) vcan0 102#A8FD000000000000
(1790000001.060000) vcan0 100#0000000000000000
(1790000001.060000) vcan0 101#800C000000000000
(1790000001.080000) vcan0 100#0000000000000000
(1790000001.080000) vcan0 101#800C000000000000
(1790000001.100000) vcan0 100#0000000000000000
(1790000001.100000) vcan0 101#800C000000000000
(1790000001.100000) vcan0 102#A8FD000000000000
(1790000001.100000) vcan0 110#0000000000000000
(1790000001.100000) vcan0 120#0300000000000000
(1790000001.100000) vcan0 203#2300000000000000
(1790000001.120000) vcan0 100#0000000000000000
(1790000001.120000) vcan0 101#800C000000000000
(1790000001.140000) vcan0 100#0000000000000000
(1790000001.140000) vcan0 101#800C000000000000
(1790000001.150000) vcan0 102#A8FD000000000000
(1790000001.160000) vcan0 100#0000000000000000
(1790000001.160000) vcan0 101#800C000000000000
(1790000001.180000) vcan0 100#0000000000000000
(1790000001.180000) vcan0 101#800C000000000000
(1790000001.200000) vcan0 100#0000000000000000
(1790000001.200000) vcan0 101#800C000000000000
(1790000001.200000) vcan0 102#A8FD000000000000
(1790000001.200000) vcan0 110#0000000000000000
(1790000001.200000) vcan0 120#0300000000000000
(1790000001.200000) vcan0 121#0200000000000000
(1790000001.200000) vcan0 203#2300000000000000
(1790000001.220000) vcan0 100#0000000000000000
(1790000001.220000) vcan0 101#800C000000000000
(1790000001.240000) vcan0 100#0000000000000000
(1790000001.240000) vcan0 101#800C000000000000
(1790000001.250000) vcan0 102#A8FD000000000000
(1790000001.260000) vcan0 100#0000000000000000
(1790000001.260000) vcan0 101#800C000000000000
(1790000001.280000) vcan0 100#0000000000000000
(1790000001.280000) vcan0 101#800C000000000000
(1790000001.300000) vcan0 100#0000000000000000
(1790000001.300000) vcan0 101#800C000000000000
(1790000001.300000) vcan0 102#A8FD000000000000
(1790000001.300000) vcan0 110#0000000000000000
(1790000001.300000) vcan0 120#0300000000000000
(1790000001.300000) vcan0 203#2300000000000000
(1790000001.320000) vcan0 100#0000000000000000
(1790000001.320000) vcan0 101#800C000000000000
(1790000001.340000) vcan0 100#0000000000000000
(1790000001.340000) vcan0 101#800C000000000000
(1790000001.350000) vcan0 102#A8FD000000000000
(1790000001.360000) vcan0 100#0000000000000000
(1790000001.360000) vcan0 101#800C000000000000
(1790000001.380000) vcan0 100#0000000000000000
(1790000001.380000) vcan0 101#800C000000000000
(1790000001.400000) vcan0 100#0000000000000000
(1790000001.400000) vcan0 101#800C000000000000
(1790000001.400000) vcan0 102#A8FD000000000000
(1790000001.400000) vcan0 110#0000000000000000
(1790000001.400000) vcan0 120#0300000000000000
(1790000001.400000) vcan0 121#0200000000000000
(1790000001.400000) vcan0 203#2300000000000000
(1790000001.420000) vcan0 100#0000000000000000
(1790000001.420000) vcan0 101#800C000000000000
(1790000001.440000) vcan0 100#0000000000000000
(1790000001.440000) vcan0 101#800C000000000000
(1790000001.450000) vcan0 102#A8FD000000000000
(1790000001.460000) vcan0 100#0000000000000000
(1790000001.460000) vcan0 101#800C000000000000
(1790000001.480000) vcan0 100#0000000000000000
(1790000001.480000) vcan0 101#800C000000000000
(1790000001.500000) vcan0 100#0000000000000000
(1790000001.500000) vcan0 101#800C000000000000
(1790000001.500000) vcan0 102#A8FD000000000000
(1790000001.500000) vcan0 110#0000000000000000
(1790000001.500000) vcan0 120#0300000000000000
(1790000001.500000) vcan0 200#8000000000000000
(1790000001.500000) vcan0 201#8400000000000000
(1790000001.500000) vcan0 203#2300000000000000
(1790000001.500000) vcan0 210#8E00000000000000
(1790000001.520000) vcan0 100#0000000000000000
(1790000001.520000) vcan0 101#800C000000000000
(1790000001.540000) vcan0 100#0000000000000000
(1790000001.540000) vcan0 101#800C000000000000
(1790000001.550000) vcan0 102#A8FD000000000000
(1790000001.560000) vcan0 100#0000000000000000
(1790000001.560000) vcan0 101#800C000000000000
(1790000001.580000) vcan0 100#0000000000000000
(1790000001.580000) vcan0 101#800C000000000000
(1790000001.600000) vcan0 100#0000000000000000
(1790000001.600000) vcan0 101#800C000000000000
(1790000001.600000) vcan0 102#A8FD000000000000
(1790000001.600000) vcan0 110#0000000000000000
(1790000001.600000) vcan0 120#0300000000000000
(1790000001.600000) vcan0 121#0200000000000000
(1790000001.600000) vcan0 203#2300000000000000
(1790000001.620000) vcan0 100#0000000000000000
(1790000001.620000) vcan0 101#800C000000000000
(1790000001.640000) vcan0 100#0000000000000000
(1790000001.640000) vcan0 101#800C000000000000
(1790000001.650000) vcan0 102#A8FD000000000000
(1790000001.660000) vcan0 100#0000000000000000
(1790000001.660000) vcan0 101#800C000000000000
(1790000001.680000) vcan0 100#0000000000000000
(1790000001.680000) vcan0 101#800C000000000000
(1790000001.700000) vcan0 100#0000000000000000
(1790000001.700000) vcan0 101#800C000000000000
(1790000001.700000) vcan0 102#A8FD000000000000
(1790000001.700000) vcan0 110#0000000000000000
(1790000001.700000) vcan0 120#0300000000000000
(1790000001.700000) vcan0 203#2300000000000000
(1790000001.720000) vcan0 100#0000000000000000
(1790000001.720000) vcan0 101#800C000000000000
(1790000001.740000) vcan0 100#0000000000000000
(1790000001.740000) vcan0 101#800C000000000000
(1790000001.750000) vcan0 102#A8FD000000000000
(1790000001.760000) vcan0 100#0000000000000000
(1790000001.760000) vcan0 101#800C000000000000
(1790000001.780000) vcan0 100#0000000000000000
(1790000001.780000) vcan0 101#800C000000000000
(1790000001.800000) vcan0 100#0000000000000000
(1790000001.800000) vcan0 101#800C000000000000
(1790000001.800000) vcan0 102#A8FD000000000000
(1790000001.800000) vcan0 110#0000000000000000
(1790000001.800000) vcan0 120#0300000000000000
(1790000001.800000) vcan0 121#0200000000000000
(1790000001.800000) vcan0 203#2300000000000000
(1790000001.820000) vcan0 100#0000000000000000
(1790000001.820000) vcan0 101#800C000000000000
(1790000001.840000) vcan0 100#0000000000000000
(1790000001.840000) vcan0 101#800C000000000000
(1790000001.850000) vcan0 102#A8FD000000000000
(1790000001.860000) vcan0 100#0000000000000000
(1790000001.860000) vcan0 101#800C000000000000
(1790000001.880000) vcan0 100#0000000000000000
(1790000001.880000) vcan0 101#800C000000000000
(1790000001.900000) vcan0 100#0000000000000000
(1790000001.900000) vcan0 101#800C000000000000
(1790000001.900000) vcan0 102#A8FD000000000000
(1790000001.900000) vcan0 110#0000000000000000
(1790000001.900000) vcan0 120#0300000000000000
(1790000001.900000) vcan0 203#2300000000000000
(1790000001.920000) vcan0 100#0000000000000000
(1790000001.920000) vcan0 101#800C000000000000
(1790000001.940000) vcan0 100#0000000000000000
(1790000001.940000) vcan0 101#800C000000000000
(1790000001.950000) vcan0 102#A8FD000000000000
(1790000001.960000) vcan0 100#0000000000000000
(1790000001.960000) vcan0 101#800C000000000000
(1790000001.980000) vcan0 100#0000000000000000
(1790000001.980000) vcan0 101#800C000000000000
(1790000002.000000) vcan0 100#0000000000000000
(1790000002.000000) vcan0 101#800C000000000000
(1790000002.000000) vcan0 102#A8FD000000000000
(1790000002.000000) vcan0 110#0000000000000000
(1790000002.000000) vcan0 120#0300000000000000
(1790000002.000000) vcan0 121#0200000000000000
(1790000002.000000) vcan0 200#8000000000000000
(1790000002.000000) vcan0 201#8400000000000000
(1790000002.000000) vcan0 202#7C00000000000000
(1790000002.000000) vcan0 203#2300000000000000
(1790000002.000000) vcan0 210#8E00000000000000
(1790000002.000000) vcan0 220#7C00000000000000
(1790000002.000000) vcan0 221#B501000000000000
(1790000002.000000) vcan0 222#4E00000000000000
(1790000002.000000) vcan0 230#94991C0000000000
(1790000002.000000) vcan0 231#B501000000000000
(1790000002.000000) vcan0 232#0019000000000000
(1790000002.000000) vcan0 240#7300000000000000
(1790000002.000000) vcan0 241#7300000000000000
(1790000002.000000) vcan0 242#6E00000000000000
(1790000002.000000) vcan0 243#6E00000000000000
(1790000002.000000) vcan0 18FF0100#7000000000000000
(1790000002.020000) vcan0 100#0000000000000000
(1790000002.020000) vcan0 101#800C000000000000
(1790000002.040000) vcan0 100#0000000000000000
(1790000002.040000) vcan0 101#800C000000000000
(1790000002.050000) vcan0 102#A8FD000000000000
(1790000002.060000) vcan0 100#0000000000000000
(1790000002.060000) vcan0 101#800C000000000000
(1790000002.080000) vcan0 100#0000000000000000
(1790000002.080000) vcan0 101#800C000000000000
(1790000002.100000) vcan0 100#0000000000000000
(1790000002.100000) vcan0 101#800C000000000000
(1790000002.100000) vcan0 102#A8FD000000000000
(1790000002.100000) vcan0 110#0000000000000000
(1790000002.100000) vcan0 120#0300000000000000
(1790000002.100000) vcan0 203#2300000000000000
(1790000002.120000) vcan0 100#0000000000000000
(1790000002.120000) vcan0 101#800C000000000000
(1790000002.140000) vcan0 100#0000000000000000
(1790000002.140000) vcan0 101#800C000000000000
(1790000002.150000) vcan0 102#A8FD000000000000
(1790000002.160000) vcan0 100#0000000000000000
(1790000002.160000) vcan0 101#800C000000000000
(1790000002.180000) vcan0 100#0000000000000000
(1790000002.180000) vcan0 101#800C000000000000
(1790000002.200000) vcan0 100#0000000000000000
(1790000002.200000) vcan0 101#800C000000000000
(1790000002.200000) vcan0 102#A8FD000000000000
(1790000002.200000) vcan0 110#0000000000000000
(1790000002.200000) vcan0 120#0300000000000000
(1790000002.200000) vcan0 121#0200000000000000
(1790000002.200000) vcan0 203#2300000000000000
(1790000002.220000) vcan0 100#0000000000000000
(1790000002.220000) vcan0 101#800C000000000000
(1790000002.240000) vcan0 100#0000000000000000
(1790000002.240000) vcan0 101#800C000000000000
(1790000002.250000) vcan0 102#A8FD000000000000
(1790000002.260000) vcan0 100#0000000000000000
(1790000002.260000) vcan0 101#800C000000000000
(1790000002.280000) vcan0 100#0000000000000000
(1790000002.280000) vcan0 101#800C000000000000
(1790000002.300000) vcan0 100#0000000000000000
(1790000002.300000) vcan0 101#800C000000000000
(1790000002.300000) vcan0 102#A8FD000000000000
(1790000002.300000) vcan0 110#0000000000000000
(1790000002.300000) vcan0 120#0300000000000000
(1790000002.300000) vcan0 203#2300000000000000
(1790000002.320000) vcan0 100#0000000000000000
(1790000002.320000) vcan0 101#800C000000000000
(1790000002.340000) vcan0 100#0000000000000000
(1790000002.340000) vcan0 101#800C000000000000
(1790000002.350000) vcan0 102#A8FD000000000000
(1790000002.360000) vcan0 100#0000000000000000
(1790000002.360000) vcan0 101#800C000000000000
(1790000002.380000) vcan0 100#0000000000000000
(1790000002.380000) vcan0 101#800C000000000000
(1790000002.400000) vcan0 100#0000000000000000
(1790000002.400000) vcan0 101#800C000000000000
(1790000002.400000) vcan0 102#A8FD000000000000
(1790000002.400000) vcan0 110#0000000000000000
(1790000002.400000) vcan0 120#0300000000000000
(1790000002.400000) vcan0 121#0200000000000000
(1790000002.400000) vcan0 203#2300000000000000
(1790000002.420000) vcan0 100#0000000000000000
(1790000002.420000) vcan0 101#800C000000000000
(1790000002.440000) vcan0 100#0000000000000000
(1790000002.440000) vcan0 101#800C000000000000
(1790000002.450000) vcan0 102#A8FD000000000000
(1790000002.460000) vcan0 100#0000000000000000
(1790000002.460000) vcan0 101#800C000000000000
(1790000002.480000) vcan0 100#0000000000000000
(1790000002.480000) vcan0 101#800C000000000000
(1790000002.500000) vcan0 100#0000000000000000
(1790000002.500000) vcan0 101#800C000000000000
(1790000002.500000) vcan0 102#A8FD000000000000
(1790000002.500000) vcan0 110#0000000000000000
(1790000002.500000) vcan0 120#0300000000000000
(1790000002.500000) vcan0 200#8000000000000000
(1790000002.500000) vcan0 201#8400000000000000
(1790000002.500000) vcan0 203#2300000000000000
(1790000002.500000) vcan0 210#8E00000000000000
(1790000002.520000) vcan0 100#0000000000000000
(1790000002.520000) vcan0 101#800C000000000000
(1790000002.540000) vcan0 100#0000000000000000
(1790000002.540000) vcan0 101#800C000000000000
(1790000002.550000) vcan0 102#A8FD000000000000
(1790000002.560000) vcan0 100#0000000000000000
(1790000002.560000) vcan0 101#800C000000000000
(1790000002.580000) vcan0 100#0000000000000000
(1790000002.580000) vcan0 101#800C000000000000
(1790000002.600000) vcan0 100#0000000000000000
(1790000002.600000) vcan0 101#800C000000000000
(1790000002.600000) vcan0 102#A8FD000000000000
(1790000002.600000) vcan0 110#0000000000000000
(1790000002.600000) vcan0 120#0300000000000000
(1790000002.600000) vcan0 121#0200000000000000
(1790000002.600000) vcan0 203#2300000000000000
(1790000002.620000) vcan0 100#0000000000000000
(1790000002.620000) vcan0 101#800C000000000000
(1790000002.640000) vcan0 100#0000000000000000
(1790000002.640000) vcan0 101#800C000000000000
(1790000002.650000) vcan0 102#A8FD000000000000
(1790000002.660000) vcan0 100#0000000000000000
(1790000002.660000) vcan0 101#800C000000000000
(1790000002.680000) vcan0 100#0000000000000000
(1790000002.680000) vcan0 101#800C000000000000
(1790000002.700000) vcan0 100#0000000000000000
(1790000002.700000) vcan0 101#800C000000000000
(1790000002.700000) vcan0 102#A8FD000000000000
(1790000002.700000) vcan0 110#0000000000000000
(1790000002.700000) vcan0 120#0300000000000000
(1790000002.700000) vcan0 203#2300000000000000
(1790000002.720000) vcan0 100#0000000000000000
(1790000002.720000) vcan0 101#800C000000000000
(1790000002.740000) vcan0 100#0000000000000000
(1790000002.740000) vcan0 101#800C000000000000
(1790000002.750000) vcan0 102#A8FD000000000000
(1790000002.760000) vcan0 100#0000000000000000
(1790000002.760000) vcan0 101#800C000000000000
(1790000002.780000) vcan0 100#0000000000000000
(1790000002.780000) vcan0 101#800C000000000000
(1790000002.800000) vcan0 100#0000000000000000
(1790000002.800000) vcan0 101#800C000000000000
(1790000002.800000) vcan0 102#A8FD000000000000
(1790000002.800000) vcan0 110#0000000000000000
(1790000002.800000) vcan0 120#0300000000000000
(1790000002.800000) vcan0 121#0200000000000000
(1790000002.800000) vcan0 203#2300000000000000
(1790000002.820000) vcan0 100#0000000000000000
(1790000002.820000) vcan0 101#800C000000000000
(1790000002.840000) vcan0 100#0000000000000000
(1790000002.840000) vcan0 101#800C000000000000
(1790000002.850000) vcan0 102#A8FD000000000000
(1790000002.860000) vcan0 100#0000000000000000
(1790000002.860000) vcan0 101#800C000000000000
(1790000002.880000) vcan0 100#0000000000000000
(1790000002.880000) vcan0 101#800C000000000000
(1790000002.900000) vcan0 100#0000000000000000
(1790000002.900000) vcan0 101#800C000000000000
(1790000002.900000) vcan0 102#A8FD000000000000
(1790000002.900000) vcan0 110#0000000000000000
(1790000002.900000) vcan0 120#0300000000000000
(1790000002.900000) vcan0 203#2300000000000000
(1790000002.920000) vcan0 100#0000000000000000
(1790000002.920000) vcan0 101#800C000000000000
(1790000002.940000) vcan0 100#0000000000000000
(1790000002.940000) vcan0 101#800C000000000000
(1790000002.950000) vcan0 102#A8FD000000000000
(1790000002.960000) vcan0 100#0000000000000000
(1790000002.960000) vcan0 101#800C000000000000
(1790000002.980000) vcan0 100#0000000000000000
(1790000002.980000) vcan0 101#800C000000000000
(1790000003.000000) vcan0 100#0000000000000000
(1790000003.000000) vcan0 101#800C000000000000
(1790000003.000000) vcan0 102#A8FD000000000000
(1790000003.000000) vcan0 110#0000000000000000
(1790000003.000000) vcan0 120#0300000000000000
(1790000003.000000) vcan0 121#0200000000000000
(1790000003.000000) vcan0 200#8000000000000000
(1790000003.000000) vcan0 201#8400000000000000
(1790000003.000000) vcan0 202#7C00000000000000
(1790000003.000000) vcan0 203#2300000000000000
(1790000003.000000) vcan0 210#8E00000000000000
(1790000003.000000) vcan0 220#7C00000000000000
(1790000003.000000) vcan0 221#B501000000000000
(1790000003.000000) vcan0 222#4E00000000000000
(1790000003.000000) vcan0 230#94991C0000000000
(1790000003.000000) vcan0 231#B501000000000000
(1790000003.000000) vcan0 232#0019000000000000
(1790000003.000000) vcan0 240#7300000000000000
(1790000003.000000) vcan0 241#7300000000000000
(1790000003.000000) vcan0 242#6E00000000000000
(1790000003.000000) vcan0 243#6E00000000000000
(1790000003.000000) vcan0 18FF0100#7000000000000000
(1790000003.020000) vcan0 100#0000000000000000
(1790000003.020000) vcan0 101#800C000000000000
(1790000003.040000) vcan0 100#0000000000000000
(1790000003.040000) vcan0 101#800C000000000000
(1790000003.050000) vcan0 102#A8FD000000000000
(1790000003.060000) vcan0 100#0000000000000000
(1790000003.060000) vcan0 101#800C000000000000
(1790000003.080000) vcan0 100#0000000000000000
(1790000003.080000) vcan0 101#800C000000000000
(1790000003.100000) vcan0 100#0000000000000000
(1790000003.100000) vcan0 101#800C000000000000
(1790000003.100000) vcan0 102#A8FD000000000000
(1790000003.100000) vcan0 110#0000000000000000
(1790000003.100000) vcan0 120#0300000000000000
(1790000003.100000) vcan0 203#2300000000000000
(1790000003.120000) vcan0 100#0000000000000000
(1790000003.120000) vcan0 101#800C000000000000
(1790000003.140000) vcan0 100#0000000000000000
(1790000003.140000) vcan0 101#800C000000000000
(1790000003.150000) vcan0 102#A8FD000000000000
(1790000003.160000) vcan0 100#0000000000000000
(1790000003.160000) vcan0 101#800C000000000000
(1790000003.180000) vcan0 100#0000000000000000
(1790000003.180000) vcan0 101#800C000000000000
(1790000003.200000) vcan0 100#0000000000000000
(1790000003.200000) vcan0 101#800C000000000000
(1790000003.200000) vcan0 102#A8FD000000000000
(1790000003.200000) vcan0 110#0000000000000000
(1790000003.200000) vcan0 120#0300000000000000
(1790000003.200000) vcan0 121#0200000000000000
(1790000003.200000) vcan0 203#2300000000000000
(1790000003.220000) vcan0 100#0000000000000000
(1790000003.220000) vcan0 101#800C000000000000
(1790000003.240000) vcan0 100#0000000000000000
(1790000003.240000) vcan0 101#800C000000000000
(1790000003.250000) vcan0 102#A8FD000000000000
(1790000003.260000) vcan0 100#0000000000000000
(1790000003.260000) vcan0 101#800C000000000000
(1790000003.280000) vcan0 100#0000000000000000
(1790000003.280000) vcan0 101#800C000000000000
(1790000003.300000) vcan0 100#0000000000000000
(1790000003.300000) vcan0 101#800C000000000000
(1790000003.300000) vcan0 102#A8FD000000000000
(1790000003.300000) vcan0 110#0000000000000000
(1790000003.300000) vcan0 120#0300000000000000
(1790000003.300000) vcan0 203#2300000000000000
(1790000003.320000) vcan0 100#0000000000000000
(1790000003.320000) vcan0 101#800C000000000000
(1790000003.340000) vcan0 100#0000000000000000
(1790000003.340000) vcan0 101#800C000000000000
(1790000003.350000) vcan0 102#A8FD000000000000
(1790000003.360000) vcan0 100#0000000000000000
(1790000003.360000) vcan0 101#800C000000000000
(1790000003.380000) vcan0 100#0000000000000000
(1790000003.380000) vcan0 101#800C000000000000
(1790000003.400000) vcan0 100#0000000000000000
(1790000003.400000) vcan0 101#800C000000000000
(1790000003.400000) vcan0 102#A8FD000000000000
(1790000003.400000) vcan0 110#0000000000000000
(1790000003.400000) vcan0 120#0300000000000000
(1790000003.400000) vcan0 121#0200000000000000
(1790000003.400000) vcan0 203#2300000000000000
(1790000003.420000) vcan0 100#0000000000000000
(1790000003.420000) vcan0 101#800C000000000000
(1790000003.440000) vcan0 100#0000000000000000
(1790000003.440000) vcan0 101#800C000000000000
(1790000003.450000) vcan0 102#A8FD000000000000
(1790000003.460000) vcan0 100#0000000000000000
(1790000003.460000) vcan0 101#800C000000000000
(1790000003.480000) vcan0 100#0000000000000000
(1790000003.480000) vcan0 101#800C000000000000
(1790000003.500000) vcan0 100#0000000000000000
(1790000003.500000) vcan0 101#800C000000000000
(1790000003.500000) vcan0 102#A8FD000000000000
(1790000003.500000) vcan0 110#0000000000000000
(1790000003.500000) vcan0 120#0300000000000000
(1790000003.500000) vcan0 200#8000000000000000
(1790000003.500000) vcan0 201#8400000000000000
(1790000003.500000) vcan0 203#2300000000000000
(1790000003.500000) vcan0 210#8E00000000000000
(1790000003.520000) vcan0 100#0000000000000000
(1790000003.520000) vcan0 101#800C000000000000
(1790000003.540000) vcan0 100#0000000000000000
(1790000003.540000) vcan0 101#800C000000000000
(1790000003.550000) vcan0 102#A8FD000000000000
(1790000003.560000) vcan0 100#0000000000000000
(1790000003.560000) vcan0 101#800C000000000000
(1790000003.580000) vcan0 100#0000000000000000
(1790000003.580000) vcan0 101#800C000000000000
(1790000003.600000) vcan0 100#0000000000000000
(1790000003.600000) vcan0 101#800C000000000000
(1790000003.600000) vcan0 102#A8FD000000000000
(1790000003.600000) vcan0 110#0000000000000000
(1790000003.600000) vcan0 120#0300000000000000
(1790000003.600000) vcan0 121#0200000000000000
(1790000003.600000) vcan0 203#2300000000000000
(1790000003.620000) vcan0 100#0000000000000000
(1790000003.620000) vcan0 101#800C000000000000
(1790000003.640000) vcan0 100#0000000000000000
(1790000003.640000) vcan0 101#800C000000000000
(1790000003.650000) vcan0 102#A8FD000000000000
(1790000003.660000) vcan0 100#0000000000000000
(1790000003.660000) vcan0 101#800C000000000000
(1790000003.680000) vcan0 100#0000000000000000
(1790000003.680000) vcan0 101#800C000000000000
(1790000003.700000) vcan0 100#0000000000000000
(1790000003.700000) vcan0 101#800C000000000000
(1790000003.700000) vcan0 102#A8FD000000000000
(1790000003.700000) vcan0 110#0000000000000000
(1790000003.700000) vcan0 120#0300000000000000
(1790000003.700000) vcan0 203#2300000000000000
(1790000003.720000) vcan0 100#0000000000000000
(1790000003.720000) vcan0 101#800C000000000000
(1790000003.740000) vcan0 100#0000000000000000
(1790000003.740000) vcan0 101#800C000000000000
(1790000003.750000) vcan0 102#A8FD000000000000
(1790000003.760000) vcan0 100#0000000000000000
(1790000003.760000) vcan0 101#800C000000000000
(1790000003.780000) vcan0 100#0000000000000000
(1790000003.780000) vcan0 101#800C000000000000
(1790000003.800000) vcan0 100#0000000000000000
(1790000003.800000) vcan0 101#800C000000000000
(1790000003.800000) vcan0 102#A8FD000000000000
(1790000003.800000) vcan0 110#0000000000000000
(1790000003.800000) vcan0 120#0300000000000000
(1790000003.800000) vcan0 121#0200000000000000
(1790000003.800000) vcan0 203#2300000000000000
(1790000003.820000) vcan0 100#0000000000000000
(1790000003.820000) vcan0 101#800C000000000000
(1790000003.840000) vcan0 100#0000000000000000
(1790000003.840000) vcan0 101#800C000000000000
(1790000003.850000) vcan0 102#A8FD000000000000
(1790000003.860000) vcan0 100#0000000000000000
(1790000003.860000) vcan0 101#800C000000000000
(1790000003.880000) vcan0 100#0000000000000000
(1790000003.880000) vcan0 101#800C000000000000
(1790000003.900000) vcan0 100#0000000000000000
(1790000003.900000) vcan0 101#800C000000000000
(1790000003.900000) vcan0 102#A8FD000000000000
(1790000003.900000) vcan0 110#0000000000000000
(1790000003.900000) vcan0 120#0300000000000000
(1790000003.900000) vcan0 203#2300000000000000
(1790000003.920000) vcan0 100#0000000000000000
(1790000003.920000) vcan0 101#800C000000000000
(1790000003.940000) vcan0 100#0000000000000000
(1790000003.940000) vcan0 101#800C000000000000
(1790000003.950000) vcan0 102#A8FD000000000000
(1790000003.960000) vcan0 100#0000000000000000
(1790000003.960000) vcan0 101#800C000000000000
(1790000003.980000) vcan0 100#0000000000000000
(1790000003.980000) vcan0 101#800C000000000000
(1790000004.000000) vcan0 100#0000000000000000
(1790000004.000000) vcan0 101#800C000000000000
(1790000004.000000) vcan0 102#A8FD000000000000
(1790000004.000000) vcan0 110#0000000000000000
(1790000004.000000) vcan0 120#0300000000000000
(1790000004.000000) vcan0 121#0200000000000000
(1790000004.000000) vcan0 200#8000000000000000
(1790000004.000000) vcan0 201#8400000000000000
(1790000004.000000) vcan0 202#7C00000000000000
(1790000004.000000) vcan0 203#2300000000000000
(1790000004.000000) vcan0 210#8E00000000000000
(1790000004.000000) vcan0 220#7C00000000000000
(1790000004.000000) vcan0 221#B501000000000000
(1790000004.000000) vcan0 222#4E00000000000000
(1790000004.000000) vcan0 230#94991C0000000000
(1790000004.000000) vcan0 231#B501000000000000
(1790000004.000000) vcan0 232#0019000000000000
(1790000004.000000) vcan0 240#7300000000000000
(1790000004.000000) vcan0 241#7300000000000000
(1790000004.000000) vcan0 242#6E00000000000000
(1790000004.000000) vcan0 243#6E00000000000000
(1790000004.000000) vcan0 18FF0100#7000000000000000
(1790000004.020000) vcan0 100#0000000000000000
(1790000004.020000) vcan0 101#800C000000000000
(1790000004.040000) vcan0 100#0000000000000000
(1790000004.040000) vcan0 101#800C000000000000
(1790000004.050000) vcan0 102#A8FD000000000000
(1790000004.060000) vcan0 100#0000000000000000
(1790000004.060000) vcan0 101#800C000000000000
(1790000004.080000) vcan0 100#0000000000000000
(1790000004.080000) vcan0 101#800C000000000000
(1790000004.100000) vcan0 100#0000000000000000
(1790000004.100000) vcan0 101#800C000000000000
(1790000004.100000) vcan0 102#A8FD000000000000
(1790000004.100000) vcan0 110#0000000000000000
(1790000004.100000) vcan0 120#0300000000000000
(1790000004.100000) vcan0 203#2300000000000000
(1790000004.120000) vcan0 100#0000000000000000
(1790000004.120000) vcan0 101#800C000000000000
(1790000004.140000) vcan0 100#0000000000000000
(1790000004.140000) vcan0 101#800C000000000000
(1790000004.150000) vcan0 102#A8FD000000000000
(1790000004.160000) vcan0 100#0000000000000000
(1790000004.160000) vcan0 101#800C000000000000
(1790000004.180000) vcan0 100#0000000000000000
(1790000004.180000) vcan0 101#800C000000000000
(1790000004.200000) vcan0 100#0000000000000000
(1790000004.200000) vcan0 101#800C000000000000
(1790000004.200000) vcan0 102#A8FD000000000000
(1790000004.200000) vcan0 110#0000000000000000
(1790000004.200000) vcan0 120#0300000000000000
(1790000004.200000) vcan0 121#0200000000000000
(1790000004.200000) vcan0 203#2300000000000000
(1790000004.220000) vcan0 100#0000000000000000
(1790000004.220000) vcan0 101#800C000000000000
(1790000004.240000) vcan0 100#0000000000000000
(1790000004.240000) vcan0 101#800C000000000000
(1790000004.250000) vcan0 102#A8FD000000000000
(1790000004.260000) vcan0 100#0000000000000000
(1790000004.260000) vcan0 101#800C000000000000
(1790000004.280000) vcan0 100#0000000000000000
(1790000004.280000) vcan0 101#800C000000000000
(1790000004.300000) vcan0 100#0000000000000000
(1790000004.300000) vcan0 101#800C000000000000
(1790000004.300000) vcan0 102#A8FD000000000000
(1790000004.300000) vcan0 110#0000000000000000
(1790000004.300000) vcan0 120#0300000000000000
(1790000004.300000) vcan0 203#2300000000000000
(1790000004.320000) vcan0 100#0000000000000000
(1790000004.320000) vcan0 101#800C000000000000
(1790000004.340000) vcan0 100#0000000000000000
(1790000004.340000) vcan0 101#800C000000000000
(1790000004.350000) vcan0 102#A8FD000000000000
(1790000004.360000) vcan0 100#0000000000000000
(1790000004.360000) vcan0 101#800C000000000000
(1790000004.380000) vcan0 100#0000000000000000
(1790000004.380000) vcan0 101#800C000000000000
(1790000004.400000) vcan0 100#0000000000000000
(1790000004.400000) vcan0 101#800C000000000000
(1790000004.400000) vcan0 102#A8FD000000000000
(1790000004.400000) vcan0 110#0000000000000000
(1790000004.400000) vcan0 120#0300000000000000
(1790000004.400000) vcan0 121#0200000000000000
(1790000004.400000) vcan0 203#2300000000000000
(1790000004.420000) vcan0 100#0000000000000000
(1790000004.420000) vcan0 101#800C000000000000
(1790000004.440000) vcan0 100#0000000000000000
(1790000004.440000) vcan0 101#800C000000000000
(1790000004.450000) vcan0 102#A8FD000000000000
(1790000004.460000) vcan0 100#0000000000000000
(1790000004.460000) vcan0 101#800C000000000000
(1790000004.480000) vcan0 100#0000000000000000
(1790000004.480000) vcan0 101#800C000000000000
(1790000004.500000) vcan0 100#0000000000000000
(1790000004.500000) vcan0 101#800C000000000000
(1790000004.500000) vcan0 102#A8FD000000000000
(1790000004.500000) vcan0 110#0000000000000000
(1790000004.500000) vcan0 120#0300000000000000
(1790000004.500000) vcan0 200#8000000000000000
(1790000004.500000) vcan0 201#8400000000000000
(1790000004.500000) vcan0 203#2300000000000000
(1790000004.500000) vcan0 210#8E00000000000000
(1790000004.520000) vcan0 100#0000000000000000
(1790000004.520000) vcan0 101#800C000000000000
(1790000004.540000) vcan0 100#0000000000000000
(1790000004.540000) vcan0 101#800C000000000000
(1790000004.550000) vcan0 102#A8FD000000000000
(1790000004.560000) vcan0 100#0000000000000000
(1790000004.560000) vcan0 101#800C000000000000
(1790000004.580000) vcan0 100#0000000000000000
(1790000004.580000) vcan0 101#800C000000000000
(1790000004.600000) vcan0 100#0000000000000000
(1790000004.600000) vcan0 101#800C000000000000
(1790000004.600000) vcan0 102#A8FD000000000000
(1790000004.600000) vcan0 110#0000000000000000
(1790000004.600000) vcan0 120#0300000000000000
(1790000004.600000) vcan0 121#0200000000000000
(1790000004.600000) vcan0 203#2300000000000000
(1790000004.620000) vcan0 100#0000000000000000
(1790000004.620000) vcan0 101#800C000000000000
(1790000004.640000) vcan0 100#0000000000000000
(1790000004.640000) vcan0 101#800C000000000000
(1790000004.650000) vcan0 102#A8FD000000000000
(1790000004.660000) vcan0 100#0000000000000000
(1790000004.660000) vcan0 101#800C000000000000
(1790000004.680000) vcan0 100#0000000000000000
(1790000004.680000) vcan0 101#800C000000000000
(1790000004.700000) vcan0 100#0000000000000000
(1790000004.700000) vcan0 101#800C000000000000
(1790000004.700000) vcan0 102#A8FD000000000000
(1790000004.700000) vcan0 110#0000000000000000
(1790000004.700000) vcan0 120#0300000000000000
(1790000004.700000) vcan0 203#2300000000000000
(1790000004.720000) vcan0 100#0000000000000000
(1790000004.720000) vcan0 101#800C000000000000
(1790000004.740000) vcan0 100#0000000000000000
(1790000004.740000) vcan0 101#800C000000000000
(1790000004.750000) vcan0 102#A8FD000000000000
(1790000004.760000) vcan0 100#0000000000000000
(1790000004.760000) vcan0 101#800C000000000000
(1790000004.780000) vcan0 100#0000000000000000
(1790000004.780000) vcan0 101#800C000000000000
(1790000004.800000) vcan0 100#0000000000000000
(1790000004.800000) vcan0 101#800C000000000000
(1790000004.800000) vcan0 102#A8FD000000000000
(1790000004.800000) vcan0 110#0000000000000000
(1790000004.800000) vcan0 120#0300000000000000
(1790000004.800000) vcan0 121#0200000000000000
(1790000004.800000) vcan0 203#2300000000000000
(1790000004.820000) vcan0 100#0000000000000000
(1790000004.820000) vcan0 101#800C000000000000
(1790000004.840000) vcan0 100#0000000000000000
(1790000004.840000) vcan0 101#800C000000000000
(1790000004.850000) vcan0 102#A8FD000000000000
(1790000004.860000) vcan0 100#0000000000000000
(1790000004.860000) vcan0 101#800C000000000000
(1790000004.880000) vcan0 100#0000000000000000
(1790000004.880000) vcan0 101#800C000000000000
(1790000004.900000) vcan0 100#0000000000000000
(1790000004.900000) vcan0 101#800C000000000000
(1790000004.900000) vcan0 102#A8FD000000000000
(1790000004.900000) vcan0 110#0000000000000000
(1790000004.900000) vcan0 120#0300000000000000
(1790000004.900000) vcan0 203#2300000000000000
(1790000004.920000) vcan0 100#0000000000000000
(1790000004.920000) vcan0 101#800C000000000000
(1790000004.940000) vcan0 100#0000000000000000
(1790000004.940000) vcan0 101#800C000000000000
(1790000004.950000) vcan0 102#A8FD000000000000
(1790000004.960000) vcan0 100#0000000000000000
(1790000004.960000) vcan0 101#800C000000000000
(1790000004.980000) vcan0 100#0000000000000000
(1790000004.980000) vcan0 101#800C000000000000
(1790000005.000000) vcan0 100#0700000000000000
(1790000005.000000) vcan0 101#800C000000000000
(1790000005.000000) vcan0 102#8403000000000000
(1790000005.000000) vcan0 110#0000000000000000
(1790000005.000000) vcan0 120#0300000000000000
(1790000005.000000) vcan0 121#0200000000000000
(1790000005.000000) vcan0 200#8000000000000000
(1790000005.000000) vcan0 201#8400000000000000
(1790000005.000000) vcan0 202#7C00000000000000
(1790000005.000000) vcan0 203#2300000000000000
(1790000005.000000) vcan0 210#8E00000000000000
(1790000005.000000) vcan0 220#7C00000000000000
(1790000005.000000) vcan0 221#B501000000000000
(1790000005.000000) vcan0 222#4E00000000000000
(1790000005.000000) vcan0 230#94991C0000000000
(1790000005.000000) vcan0 231#B501000000000000
(1790000005.000000) vcan0 232#0019000000000000
(1790000005.000000) vcan0 240#7300000000000000
(1790000005.000000) vcan0 241#7300000000000000
(1790000005.000000) vcan0 242#6E00000000000000
(1790000005.000000) vcan0 243#6E00000000000000
(1790000005.000000) vcan0 18FF0100#7000000000000000
(1790000005.020000) vcan0 100#1400000000000000
(1790000005.020000) vcan0 101#800C000000000000
(1790000005.040000) vcan0 100#2100000000000000
(1790000005.040000) vcan0 101#800C000000000000
(1790000005.050000) vcan0 102#8403000000000000
(1790000005.060000) vcan0 100#2F00000000000000
(1790000005.060000) vcan0 101#800C000000000000
(1790000005.080000) vcan0 100#3C00000000000000
(1790000005.080000) vcan0 101#800C000000000000
(1790000005.100000) vcan0 100#4900000000000000
(1790000005.100000) vcan0 101#800C000000000000
(1790000005.100000) vcan0 102#8403000000000000
(1790000005.100000) vcan0 110#0000000000000000
(1790000005.100000) vcan0 120#0300000000000000
(1790000005.100000) vcan0 203#2300000000000000
(1790000005.120000) vcan0 100#5700000000000000
(1790000005.120000) vcan0 101#800C000000000000
(1790000005.140000) vcan0 100#6400000000000000
(1790000005.140000) vcan0 101#800C000000000000
(1790000005.150000) vcan0 102#8403000000000000
(1790000005.160000) vcan0 100#7100000000000000
(1790000005.160000) vcan0 101#502C000000000000
(1790000005.180000) vcan0 100#7F00000000000000
(1790000005.180000) vcan0 101#902C000000000000
(1790000005.200000) vcan0 100#8C00000000000000
(1790000005.200000) vcan0 101#D02C000000000000
(1790000005.200000) vcan0 102#8403000000000000
(1790000005.200000) vcan0 110#0100000000000000
(1790000005.200000) vcan0 120#0300000000000000
(1790000005.200000) vcan0 121#0200000000000000
(1790000005.200000) vcan0 203#3E00000000000000
(1790000005.220000) vcan0 100#9900000000000000
(1790000005.220000) vcan0 101#102D000000000000
(1790000005.240000) vcan0 100#A700000000000000
(1790000005.240000) vcan0 101#502D000000000000
(1790000005.250000) vcan0 102#8403000000000000
(1790000005.260000) vcan0 100#B400000000000000
(1790000005.260000) vcan0 101#902D000000000000
(1790000005.280000) vcan0 100#C100000000000000
(1790000005.280000) vcan0 101#D02D000000000000
(1790000005.300000) vcan0 100#CF00000000000000
(1790000005.300000) vcan0 101#102E000000000000
(1790000005.300000) vcan0 102#8403000000000000
(1790000005.300000) vcan0 110#0100000000000000
(1790000005.300000) vcan0 120#0300000000000000
(1790000005.300000) vcan0 203#3F00000000000000
(1790000005.320000) vcan0 100#DC00000000000000
(1790000005.320000) vcan0 101#502E000000000000
(1790000005.340000) vcan0 100#E900000000000000
(1790000005.340000) vcan0 101#902E000000000000
(1790000005.350000) vcan0 102#8403000000000000
(1790000005.360000) vcan0 100#F700000000000000
(1790000005.360000) vcan0 101#D02E000000000000
(1790000005.380000) vcan0 100#0401000000000000
(1790000005.380000) vcan0 101#102F000000000000
(1790000005.400000) vcan0 100#1101000000000000
(1790000005.400000) vcan0 101#502F000000000000
(1790000005.400000) vcan0 102#8403000000000000
(1790000005.400000) vcan0 110#0100000000000000
(1790000005.400000) vcan0 120#0300000000000000
(1790000005.400000) vcan0 121#0200000000000000
(1790000005.400000) vcan0 203#4000000000000000
(1790000005.420000) vcan0 100#1F01000000000000
(1790000005.420000) vcan0 101#902F000000000000
(1790000005.440000) vcan0 100#2C01000000000000
(1790000005.440000) vcan0 101#D02F000000000000
(1790000005.450000) vcan0 102#8403000000000000
(1790000005.460000) vcan0 100#3901000000000000
(1790000005.460000) vcan0 101#1030000000000000
(1790000005.480000) vcan0 100#4701000000000000
(1790000005.480000) vcan0 101#5030000000000000
(1790000005.500000) vcan0 100#5401000000000000
(1790000005.500000) vcan0 101#9030000000000000
(1790000005.500000) vcan0 102#8403000000000000
(1790000005.500000) vcan0 110#0100000000000000
(1790000005.500000) vcan0 120#0300000000000000
(1790000005.500000) vcan0 200#8000000000000000
(1790000005.500000) vcan0 201#8400000000000000
(1790000005.500000) vcan0 203#4100000000000000
(1790000005.500000) vcan0 210#8E00000000000000
(1790000005.520000) vcan0 100#6101000000000000
(1790000005.520000) vcan0 101#D030000000000000
(1790000005.540000) vcan0 100#6F01000000000000
(1790000005.540000) vcan0 101#1031000000000000
(1790000005.550000) vcan0 102#8403000000000000
(1790000005.560000) vcan0 100#7C01000000000000
(1790000005.560000) vcan0 101#5031000000000000
(1790000005.580000) vcan0 100#8901000000000000
(1790000005.580000) vcan0 101#9031000000000000
(1790000005.600000) vcan0 100#9701000000000000
(1790000005.600000) vcan0 101#D031000000000000
(1790000005.600000) vcan0 102#8403000000000000
(1790000005.600000) vcan0 110#0100000000000000
(1790000005.600000) vcan0 120#0300000000000000
(1790000005.600000) vcan0 121#0200000000000000
(1790000005.600000) vcan0 203#4300000000000000
(1790000005.620000) vcan0 100#A401000000000000
(1790000005.620000) vcan0 101#1032000000000000
(1790000005.640000) vcan0 100#B101000000000000
(1790000005.640000) vcan0 101#5032000000000000
(1790000005.650000) vcan0 102#8403000000000000
(1790000005.660000) vcan0 100#BF01000000000000
(1790000005.660000) vcan0 101#9032000000000000
(1790000005.680000) vcan0 100#CC01000000000000
(1790000005.680000) vcan0 101#D032000000000000
(1790000005.700000) vcan0 100#D901000000000000
(1790000005.700000) vcan0 101#1033000000000000
(1790000005.700000) vcan0 102#8403000000000000
(1790000005.700000) vcan0 110#0100000000000000
(1790000005.700000) vcan0 120#0300000000000000
(1790000005.700000) vcan0 203#4400000000000000
(1790000005.720000) vcan0 100#E701000000000000
(1790000005.720000) vcan0 101#5033000000000000
(1790000005.740000) vcan0 100#F401000000000000
(1790000005.740000) vcan0 101#9033000000000000
(1790000005.750000) vcan0 102#8403000000000000
(1790000005.760000) vcan0 100#0102000000000000
(1790000005.760000) vcan0 101#D033000000000000
(1790000005.780000) vcan0 100#0F02000000000000
(1790000005.780000) vcan0 101#1034000000000000
(1790000005.800000) vcan0 100#1C02000000000000
(1790000005.800000) vcan0 101#5034000000000000
(1790000005.800000) vcan0 102#8403000000000000
(1790000005.800000) vcan0 110#0100000000000000
(1790000005.800000) vcan0 120#0300000000000000
(1790000005.800000) vcan0 121#0200000000000000
(1790000005.800000) vcan0 203#4500000000000000
(1790000005.820000) vcan0 100#2902000000000000
(1790000005.820000) vcan0 101#9034000000000000
(1790000005.840000) vcan0 100#3702000000000000
(1790000005.840000) vcan0 101#D034000000000000
(1790000005.850000) vcan0 102#8403000000000000
(1790000005.860000) vcan0 100#4402000000000000
(1790000005.860000) vcan0 101#1035000000000000
(1790000005.880000) vcan0 100#5102000000000000
(1790000005.880000) vcan0 101#5035000000000000
(1790000005.900000) vcan0 100#5F02000000000000
(1790000005.900000) vcan0 101#9035000000000000
(1790000005.900000) vcan0 102#8403000000000000
(1790000005.900000) vcan0 110#0100000000000000
(1790000005.900000) vcan0 120#0300000000000000
(1790000005.900000) vcan0 203#4600000000000000
(1790000005.920000) vcan0 100#6C02000000000000
(1790000005.920000) vcan0 101#D035000000000000
(1790000005.940000) vcan0 100#7902000000000000
(1790000005.940000) vcan0 101#1036000000000000
(1790000005.950000) vcan0 102#8403000000000000
(1790000005.960000) vcan0 100#8702000000000000
(1790000005.960000) vcan0 101#5036000000000000
(1790000005.980000) vcan0 100#9402000000000000
(1790000005.980000) vcan0 101#9036000000000000
(1790000006.000000) vcan0 100#A102000000000000
(1790000006.000000) vcan0 101#D036000000000000
(1790000006.000000) vcan0 102#8403000000000000
(1790000006.000000) vcan0 110#0100000000000000
(1790000006.000000) vcan0 120#0300000000000000
(1790000006.000000) vcan0 121#0200000000000000
(1790000006.000000) vcan0 200#8000000000000000
(1790000006.000000) vcan0 201#8400000000000000
(1790000006.000000) vcan0 202#7C00000000000000
(1790000006.000000) vcan0 203#4700000000000000
(1790000006.000000) vcan0 210#8E00000000000000
(1790000006.000000) vcan0 220#7C00000000000000
(1790000006.000000) vcan0 221#B501000000000000
(1790000006.000000) vcan0 222#4E00000000000000
(1790000006.000000) vcan0 230#94991C0000000000
(1790000006.000000) vcan0 231#B501000000000000
(1790000006.000000) vcan0 232#0019000000000000
(1790000006.000000) vcan0 240#7300000000000000
(1790000006.000000) vcan0 241#7300000000000000
(1790000006.000000) vcan0 242#6E00000000000000
(1790000006.000000) vcan0 243#6E00000000000000
(1790000006.000000) vcan0 18FF0100#7000000000000000
(1790000006.020000) vcan0 100#AF02000000000000
(1790000006.020000) vcan0 101#1037000000000000
(1790000006.040000) vcan0 100#BC02000000000000
(1790000006.040000) vcan0 101#5037000000000000
(1790000006.050000) vcan0 102#8403000000000000
(1790000006.060000) vcan0 100#C902000000000000
(1790000006.060000) vcan0 101#9037000000000000
(1790000006.080000) vcan0 100#D702000000000000
(1790000006.080000) vcan0 101#D037000000000000
(1790000006.100000) vcan0 100#E402000000000000
(1790000006.100000) vcan0 101#1038000000000000
(1790000006.100000) vcan0 102#8403000000000000
(1790000006.100000) vcan0 110#0100000000000000
(1790000006.100000) vcan0 120#0300000000000000
(1790000006.100000) vcan0 203#4800000000000000
(1790000006.120000) vcan0 100#F102000000000000
(1790000006.120000) vcan0 101#5038000000000000
(1790000006.140000) vcan0 100#FF02000000000000
(1790000006.140000) vcan0 101#9038000000000000
(1790000006.150000) vcan0 102#8403000000000000
(1790000006.160000) vcan0 100#0C03000000000000
(1790000006.160000) vcan0 101#D038000000000000
(1790000006.180000) vcan0 100#1903000000000000
(1790000006.180000) vcan0 101#1039000000000000
(1790000006.200000) vcan0 100#2703000000000000
(1790000006.200000) vcan0 101#5039000000000000
(1790000006.200000) vcan0 102#8403000000000000
(1790000006.200000) vcan0 110#0100000000000000
(1790000006.200000) vcan0 120#0300000000000000
(1790000006.200000) vcan0 121#0200000000000000
(1790000006.200000) vcan0 203#4900000000000000
(1790000006.220000) vcan0 100#3403000000000000
(1790000006.220000) vcan0 101#9039000000000000
(1790000006.240000) vcan0 100#4103000000000000
(1790000006.240000) vcan0 101#D039000000000000
(1790000006.250000) vcan0 102#8403000000000000
(1790000006.260000) vcan0 100#4F03000000000000
(1790000006.260000) vcan0 101#103A000000000000
(1790000006.280000) vcan0 100#5C03000000000000
(1790000006.280000) vcan0 101#503A000000000000
(1790000006.300000) vcan0 100#6903000000000000
(1790000006.300000) vcan0 101#903A000000000000
(1790000006.300000) vcan0 102#8403000000000000
(1790000006.300000) vcan0 110#0100000000000000
(1790000006.300000) vcan0 120#0300000000000000
(1790000006.300000) vcan0 203#4A00000000000000
(1790000006.320000) vcan0 100#7703000000000000
(1790000006.320000) vcan0 101#D03A000000000000
(1790000006.340000) vcan0 100#8403000000000000
(1790000006.340000) vcan0 101#103B000000000000
(1790000006.350000) vcan0 102#8403000000000000
(1790000006.360000) vcan0 100#9103000000000000
(1790000006.360000) vcan0 101#503B000000000000
(1790000006.380000) vcan0 100#9F03000000000000
(1790000006.380000) vcan0 101#903B000000000000
(1790000006.400000) vcan0 100#AC03000000000000
(1790000006.400000) vcan0 101#D03B000000000000
(1790000006.400000) vcan0 102#8403000000000000
(1790000006.400000) vcan0 110#0100000000000000
(1790000006.400000) vcan0 120#0300000000000000
(1790000006.400000) vcan0 121#0200000000000000
(1790000006.400000) vcan0 203#4B00000000000000
(1790000006.420000) vcan0 100#B903000000000000
(1790000006.420000) vcan0 101#103C000000000000
(1790000006.440000) vcan0 100#C703000000000000
(1790000006.440000) vcan0 101#503C000000000000
(1790000006.450000) vcan0 102#8403000000000000
(1790000006.460000) vcan0 100#D403000000000000
(1790000006.460000) vcan0 101#903C000000000000
(1790000006.480000) vcan0 100#E103000000000000
(1790000006.480000) vcan0 101#D03C000000000000
(1790000006.500000) vcan0 100#EF03000000000000
(1790000006.500000) vcan0 101#103D000000000000
(1790000006.500000) vcan0 102#8403000000000000
(1790000006.500000) vcan0 110#0100000000000000
(1790000006.500000) vcan0 120#0300000000000000
(1790000006.500000) vcan0 200#8000000000000000
(1790000006.500000) vcan0 201#8400000000000000
(1790000006.500000) vcan0 203#4C00000000000000
(1790000006.500000) vcan0 210#8E00000000000000
(1790000006.520000) vcan0 100#FC03000000000000
(1790000006.520000) vcan0 101#503D000000000000
(1790000006.540000) vcan0 100#0904000000000000
(1790000006.540000) vcan0 101#903D000000000000
(1790000006.550000) vcan0 102#8403000000000000
(1790000006.560000) vcan0 100#1704000000000000
(1790000006.560000) vcan0 101#D03D000000000000
(1790000006.580000) vcan0 100#2404000000000000
(1790000006.580000) vcan0 101#103E000000000000
(1790000006.600000) vcan0 100#3104000000000000
(1790000006.600000) vcan0 101#503E000000000000
(1790000006.600000) vcan0 102#8403000000000000
(1790000006.600000) vcan0 110#0100000000000000
(1790000006.600000) vcan0 120#0300000000000000
(1790000006.600000) vcan0 121#0200000000000000
(1790000006.600000) vcan0 203#4D00000000000000
(1790000006.620000) vcan0 100#3F04000000000000
(1790000006.620000) vcan0 101#903E000000000000
(1790000006.640000) vcan0 100#4C04000000000000
(1790000006.640000) vcan0 101#D03E000000000000
(1790000006.650000) vcan0 102#8403000000000000
(1790000006.660000) vcan0 100#5904000000000000
(1790000006.660000) vcan0 101#103F000000000000
(1790000006.680000) vcan0 100#6704000000000000
(1790000006.680000) vcan0 101#503F000000000000
(1790000006.700000) vcan0 100#7404000000000000
(1790000006.700000) vcan0 101#903F000000000000
(1790000006.700000) vcan0 102#8403000000000000
(1790000006.700000) vcan0 110#0100000000000000
(1790000006.700000) vcan0 120#0300000000000000
(1790000006.700000) vcan0 203#4E00000000000000
(1790000006.720000) vcan0 100#8104000000000000
(1790000006.720000) vcan0 101#D03F000000000000
(1790000006.740000) vcan0 100#8F04000000000000
(1790000006.740000) vcan0 101#1040000000000000
(1790000006.750000) vcan0 102#8403000000000000
(1790000006.760000) vcan0 100#9C04000000000000
(1790000006.760000) vcan0 101#5040000000000000
(1790000006.780000) vcan0 100#A904000000000000
(1790000006.780000) vcan0 101#9040000000000000
(1790000006.800000) vcan0 100#B704000000000000
(1790000006.800000) vcan0 101#D040000000000000
(1790000006.800000) vcan0 102#8403000000000000
(1790000006.800000) vcan0 110#0100000000000000
(1790000006.800000) vcan0 120#0300000000000000
(1790000006.800000) vcan0 121#0200000000000000
(1790000006.800000) vcan0 203#4F00000000000000
(1790000006.820000) vcan0 100#C404000000000000
(1790000006.820000) vcan0 101#1041000000000000
(1790000006.840000) vcan0 100#D104000000000000
(1790000006.840000) vcan0 101#5041000000000000
(1790000006.850000) vcan0 102#8403000000000000
(1790000006.860000) vcan0 100#DF04000000000000
(1790000006.860000) vcan0 101#9041000000000000
(1790000006.880000) vcan0 100#EC04000000000000
(1790000006.880000) vcan0 101#D041000000000000
(1790000006.900000) vcan0 100#F904000000000000
(1790000006.900000) vcan0 101#1042000000000000
(1790000006.900000) vcan0 102#8403000000000000
(1790000006.900000) vcan0 110#0100000000000000
(1790000006.900000) vcan0 120#0300000000000000
(1790000006.900000) vcan0 203#5000000000000000
(1790000006.920000) vcan0 100#0705000000000000
(1790000006.920000) vcan0 101#5042000000000000
(1790000006.940000) vcan0 100#1405000000000000
(1790000006.940000) vcan0 101#9042000000000000
(1790000006.950000) vcan0 102#8403000000000000
(1790000006.960000) vcan0 100#2105000000000000
(1790000006.960000) vcan0 101#D042000000000000
(1790000006.980000) vcan0 100#2F05000000000000
(1790000006.980000) vcan0 101#1043000000000000
(1790000007.000000) vcan0 100#3C05000000000000
(1790000007.000000) vcan0 101#5043000000000000
(1790000007.000000) vcan0 102#8403000000000000
(1790000007.000000) vcan0 110#0100000000000000
(1790000007.000000) vcan0 120#0300000000000000
(1790000007.000000) vcan0 121#0200000000000000
(1790000007.000000) vcan0 200#8000000000000000
(1790000007.000000) vcan0 201#8400000000000000
(1790000007.000000) vcan0 202#7C00000000000000
(1790000007.000000) vcan0 203#5100000000000000
(1790000007.000000) vcan0 210#8E00000000000000
(1790000007.000000) vcan0 220#7C00000000000000
(1790000007.000000) vcan0 221#B501000000000000
(1790000007.000000) vcan0 222#4E00000000000000
(1790000007.000000) vcan0 230#94991C0000000000
(1790000007.000000) vcan0 231#B501000000000000
(1790000007.000000) vcan0 232#0019000000000000
(1790000007.000000) vcan0 240#7300000000000000
(1790000007.000000) vcan0 241#7300000000000000
(1790000007.000000) vcan0 242#6E00000000000000
(1790000007.000000) vcan0 243#6E00000000000000
(1790000007.000000) vcan0 18FF0100#7000000000000000
(1790000007.020000) vcan0 100#4905000000000000
(1790000007.020000) vcan0 101#9043000000000000
(1790000007.040000) vcan0 100#5705000000000000
(1790000007.040000) vcan0 101#D043000000000000
(1790000007.050000) vcan0 102#8403000000000000
(1790000007.060000) vcan0 100#6405000000000000
(1790000007.060000) vcan0 101#1044000000000000
(1790000007.080000) vcan0 100#7105000000000000
(1790000007.080000) vcan0 101#5044000000000000
(1790000007.100000) vcan0 100#7F05000000000000
(1790000007.100000) vcan0 101#9044000000000000
(1790000007.100000) vcan0 102#8403000000000000
(1790000007.100000) vcan0 110#0100000000000000
(1790000007.100000) vcan0 120#0300000000000000
(1790000007.100000) vcan0 203#5300000000000000
(1790000007.120000) vcan0 100#8C05000000000000
(1790000007.120000) vcan0 101#D044000000000000
(1790000007.140000) vcan0 100#9905000000000000
(1790000007.140000) vcan0 101#1045000000000000
(1790000007.150000) vcan0 102#8403000000000000
(1790000007.160000) vcan0 100#A705000000000000
(1790000007.160000) vcan0 101#5045000000000000
(1790000007.180000) vcan0 100#B405000000000000
(1790000007.180000) vcan0 101#9045000000000000
(1790000007.200000) vcan0 100#C105000000000000
(1790000007.200000) vcan0 101#D045000000000000
(1790000007.200000) vcan0 102#8403000000000000
(1790000007.200000) vcan0 110#0100000000000000
(1790000007.200000) vcan0 120#0300000000000000
(1790000007.200000) vcan0 121#0200000000000000
(1790000007.200000) vcan0 203#5400000000000000
(1790000007.220000) vcan0 100#CF05000000000000
(1790000007.220000) vcan0 101#1046000000000000
(1790000007.240000) vcan0 100#DC05000000000000
(1790000007.240000) vcan0 101#5046000000000000
(1790000007.250000) vcan0 102#8403000000000000
(1790000007.260000) vcan0 100#E905000000000000
(1790000007.260000) vcan0 101#9046000000000000
(1790000007.280000) vcan0 100#F705000000000000
(1790000007.280000) vcan0 101#D046000000000000
(1790000007.300000) vcan0 100#0406000000000000
(1790000007.300000) vcan0 101#1047000000000000
(1790000007.300000) vcan0 102#8403000000000000
(1790000007.300000) vcan0 110#0100000000000000
(1790000007.300000) vcan0 120#0300000000000000
(1790000007.300000) vcan0 203#5500000000000000
(1790000007.320000) vcan0 100#1106000000000000
(1790000007.320000) vcan0 101#5047000000000000
(1790000007.340000) vcan0 100#1F06000000000000
(1790000007.340000) vcan0 101#9047000000000000
(1790000007.350000) vcan0 102#8403000000000000
(1790000007.360000) vcan0 100#2C06000000000000
(1790000007.360000) vcan0 101#D047000000000000
(1790000007.380000) vcan0 100#3906000000000000
(1790000007.380000) vcan0 101#1048000000000000
(1790000007.400000) vcan0 100#4706000000000000
(1790000007.400000) vcan0 101#5048000000000000
(1790000007.400000) vcan0 102#8403000000000000
(1790000007.400000) vcan0 110#0100000000000000
(1790000007.400000) vcan0 120#0300000000000000
(1790000007.400000) vcan0 121#0200000000000000
(1790000007.400000) vcan0 203#5600000000000000
(1790000007.420000) vcan0 100#5406000000000000
(1790000007.420000) vcan0 101#9048000000000000
(1790000007.440000) vcan0 100#6106000000000000
(1790000007.440000) vcan0 101#D048000000000000
(1790000007.450000) vcan0 102#8403000000000000
(1790000007.460000) vcan0 100#6F06000000000000
(1790000007.460000) vcan0 101#1049000000000000
(1790000007.480000) vcan0 100#7C06000000000000
(1790000007.480000) vcan0 101#5049000000000000
(1790000007.500000) vcan0 100#8906000000000000
(1790000007.500000) vcan0 101#9049000000000000
(1790000007.500000) vcan0 102#8403000000000000
(1790000007.500000) vcan0 110#0100000000000000
(1790000007.500000) vcan0 120#0300000000000000
(1790000007.500000) vcan0 200#8000000000000000
(1790000007.500000) vcan0 201#8400000000000000
(1790000007.500000) vcan0 203#5700000000000000
(1790000007.500000) vcan0 210#8E00000000000000
(1790000007.520000) vcan0 100#9706000000000000
(1790000007.520000) vcan0 101#D049000000000000
(1790000007.540000) vcan0 100#A406000000000000
(1790000007.540000) vcan0 101#104A000000000000
(1790000007.550000) vcan0 102#8403000000000000
(1790000007.560000) vcan0 100#B106000000000000
(1790000007.560000) vcan0 101#504A000000000000
(1790000007.580000) vcan0 100#BF06000000000000
(1790000007.580000) vcan0 101#904A000000000000
(1790000007.600000) vcan0 100#CC06000000000000
(1790000007.600000) vcan0 101#D04A000000000000
(1790000007.600000) vcan0 102#8403000000000000
(1790000007.600000) vcan0 110#0100000000000000
(1790000007.600000) vcan0 120#0300000000000000
(1790000007.600000) vcan0 121#0200000000000000
(1790000007.600000) vcan0 203#5800000000000000
(1790000007.620000) vcan0 100#D906000000000000
(1790000007.620000) vcan0 101#104B000000000000
(1790000007.640000) vcan0 100#E706000000000000
(1790000007.640000) vcan0 101#504B000000000000
(1790000007.650000) vcan0 102#8403000000000000
(1790000007.660000) vcan0 100#F406000000000000
(1790000007.660000) vcan0 101#904B000000000000
(1790000007.680000) vcan0 100#0107000000000000
(1790000007.680000) vcan0 101#D04B000000000000
(1790000007.700000) vcan0 100#0F07000000000000
(1790000007.700000) vcan0 101#104C000000000000
(1790000007.700000) vcan0 102#8403000000000000
(1790000007.700000) vcan0 110#0100000000000000
(1790000007.700000) vcan0 120#0300000000000000
(1790000007.700000) vcan0 203#5900000000000000
(1790000007.720000) vcan0 100#1C07000000000000
(1790000007.720000) vcan0 101#504C000000000000
(1790000007.740000) vcan0 100#2907000000000000
(1790000007.740000) vcan0 101#904C000000000000
(1790000007.750000) vcan0 102#8403000000000000
(1790000007.760000) vcan0 100#3707000000000000
(1790000007.760000) vcan0 101#D04C000000000000
(1790000007.780000) vcan0 100#4407000000000000
(1790000007.780000) vcan0 101#104D000000000000
(1790000007.800000) vcan0 100#5107000000000000
(1790000007.800000) vcan0 101#504D000000000000
(1790000007.800000) vcan0 102#8403000000000000
(1790000007.800000) vcan0 110#0100000000000000
(1790000007.800000) vcan0 120#0300000000000000
(1790000007.800000) vcan0 121#0200000000000000
(1790000007.800000) vcan0 203#5A00000000000000
(1790000007.820000) vcan0 100#5F07000000000000
(1790000007.820000) vcan0 101#904D000000000000
(1790000007.840000) vcan0 100#6C07000000000000
(1790000007.840000) vcan0 101#D04D000000000000
(1790000007.850000) vcan0 102#8403000000000000
(1790000007.860000) vcan0 100#7907000000000000
(1790000007.860000) vcan0 101#104E000000000000
(1790000007.880000) vcan0 100#8707000000000000
(1790000007.880000) vcan0 101#504E000000000000
(1790000007.900000) vcan0 100#9407000000000000
(1790000007.900000) vcan0 101#904E000000000000
(1790000007.900000) vcan0 102#8403000000000000
(1790000007.900000) vcan0 110#0100000000000000
(1790000007.900000) vcan0 120#0300000000000000
(1790000007.900000) vcan0 203#5B00000000000000
(1790000007.920000) vcan0 100#A107000000000000
(1790000007.920000) vcan0 101#D04E000000000000
(1790000007.940000) vcan0 100#AF07000000000000
(1790000007.940000) vcan0 101#104F000000000000
(1790000007.950000) vcan0 102#8403000000000000
(1790000007.960000) vcan0 100#BC07000000000000
(1790000007.960000) vcan0 101#504F000000000000
(1790000007.980000) vcan0 100#C907000000000000
(1790000007.980000) vcan0 101#904F000000000000
(1790000008.000000) vcan0 100#D707000000000000
(1790000008.000000) vcan0 101#D04F000000000000
(1790000008.000000) vcan0 102#8403000000000000
(1790000008.000000) vcan0 110#0100000000000000
(1790000008.000000) vcan0 120#0300000000000000
(1790000008.000000) vcan0 121#0200000000000000
(1790000008.000000) vcan0 200#8000000000000000
(1790000008.000000) vcan0 201#8400000000000000
(1790000008.000000) vcan0 202#7C00000000000000
(1790000008.000000) vcan0 203#5C00000000000000
(1790000008.000000) vcan0 210#8E00000000000000
(1790000008.000000) vcan0 220#7C00000000000000
(1790000008.000000) vcan0 221#B501000000000000
(1790000008.000000) vcan0 222#4E00000000000000
(1790000008.000000) vcan0 230#94991C0000000000
(1790000008.000000) vcan0 231#B501000000000000
(1790000008.000000) vcan0 232#0019000000000000
(1790000008.000000) vcan0 240#7300000000000000
(1790000008.000000) vcan0 241#7300000000000000
(1790000008.000000) vcan0 242#6E00000000000000
(1790000008.000000) vcan0 243#6E00000000000000
(1790000008.000000) vcan0 18FF0100#7000000000000000
(1790000008.020000) vcan0 100#E407000000000000
(1790000008.020000) vcan0 101#1050000000000000
(1790000008.040000) vcan0 100#F107000000000000
(1790000008.040000) vcan0 101#5050000000000000
(1790000008.050000) vcan0 102#8403000000000000
(1790000008.060000) vcan0 100#FF07000000000000
(1790000008.060000) vcan0 101#9050000000000000
(1790000008.080000) vcan0 100#0C08000000000000
(1790000008.080000) vcan0 101#D050000000000000
(1790000008.100000) vcan0 100#1908000000000000
(1790000008.100000) vcan0 101#1051000000000000
(1790000008.100000) vcan0 102#8403000000000000
(1790000008.100000) vcan0 110#0100000000000000
(1790000008.100000) vcan0 120#0300000000000000
(1790000008.100000) vcan0 203#5D00000000000000
(1790000008.120000) vcan0 100#2708000000000000
(1790000008.120000) vcan0 101#5051000000000000
(1790000008.140000) vcan0 100#3408000000000000
(1790000008.140000) vcan0 101#9051000000000000
(1790000008.150000) vcan0 102#8403000000000000
(1790000008.160000) vcan0 100#4108000000000000
(1790000008.160000) vcan0 101#D051000000000000
(1790000008.180000) vcan0 100#4F08000000000000
(1790000008.180000) vcan0 101#1052000000000000
(1790000008.200000) vcan0 100#5C08000000000000
(1790000008.200000) vcan0 101#5052000000000000
(1790000008.200000) vcan0 102#8403000000000000
(1790000008.200000) vcan0 110#0100000000000000
(1790000008.200000) vcan0 120#0300000000000000
(1790000008.200000) vcan0 121#0200000000000000
(1790000008.200000) vcan0 203#5E00000000000000
(1790000008.220000) vcan0 100#6908000000000000
(1790000008.220000) vcan0 101#9052000000000000
(1790000008.240000) vcan0 100#7708000000000000
(1790000008.240000) vcan0 101#D052000000000000
(1790000008.250000) vcan0 102#8403000000000000
(1790000008.260000) vcan0 100#8408000000000000
(1790000008.260000) vcan0 101#1053000000000000
(1790000008.280000) vcan0 100#9108000000000000
(1790000008.280000) vcan0 101#5053000000000000
(1790000008.300000) vcan0 100#9F08000000000000
(1790000008.300000) vcan0 101#502A000000000000
(1790000008.300000) vcan0 102#8403000000000000
(1790000008.300000) vcan0 110#0200000000000000
(1790000008.300000) vcan0 120#0300000000000000
(1790000008.300000) vcan0 203#3C00000000000000
(1790000008.320000) vcan0 100#AC08000000000000
(1790000008.320000) vcan0 101#902A000000000000
(1790000008.340000) vcan0 100#B908000000000000
(1790000008.340000) vcan0 101#D02A000000000000
(1790000008.350000) vcan0 102#8403000000000000
(1790000008.360000) vcan0 100#C708000000000000
(1790000008.360000) vcan0 101#102B000000000000
(1790000008.380000) vcan0 100#D408000000000000
(1790000008.380000) vcan0 101#502B000000000000
(1790000008.400000) vcan0 100#E108000000000000
(1790000008.400000) vcan0 101#902B000000000000
(1790000008.400000) vcan0 102#8403000000000000
(1790000008.400000) vcan0 110#0200000000000000
(1790000008.400000) vcan0 120#0300000000000000
(1790000008.400000) vcan0 121#0200000000000000
(1790000008.400000) vcan0 203#3D00000000000000
(1790000008.420000) vcan0 100#EF08000000000000
(1790000008.420000) vcan0 101#D02B000000000000
(1790000008.440000) vcan0 100#FC08000000000000
(1790000008.440000) vcan0 101#102C000000000000
(1790000008.450000) vcan0 102#8403000000000000
(1790000008.460000) vcan0 100#0909000000000000
(1790000008.460000) vcan0 101#502C000000000000
(1790000008.480000) vcan0 100#1709000000000000
(1790000008.480000) vcan0 101#902C000000000000
(1790000008.500000) vcan0 100#2409000000000000
(1790000008.500000) vcan0 101#D02C000000000000
(1790000008.500000) vcan0 102#8403000000000000
(1790000008.500000) vcan0 110#0200000000000000
(1790000008.500000) vcan0 120#0300000000000000
(1790000008.500000) vcan0 200#8000000000000000
(1790000008.500000) vcan0 201#8400000000000000
(1790000008.500000) vcan0 203#3E00000000000000
(1790000008.500000) vcan0 210#8E00000000000000
(1790000008.520000) vcan0 100#3109000000000000
(1790000008.520000) vcan0 101#102D000000000000
(1790000008.540000) vcan0 100#3F09000000000000
(1790000008.540000) vcan0 101#502D000000000000
(1790000008.550000) vcan0 102#8403000000000000
(1790000008.560000) vcan0 100#4C09000000000000
(1790000008.560000) vcan0 101#902D000000000000
(1790000008.580000) vcan0 100#5909000000000000
(1790000008.580000) vcan0 101#D02D000000000000
(1790000008.600000) vcan0 100#6709000000000000
(1790000008.600000) vcan0 101#102E000000000000
(1790000008.600000) vcan0 102#8403000000000000
(1790000008.600000) vcan0 110#0200000000000000
(1790000008.600000) vcan0 120#0300000000000000
(1790000008.600000) vcan0 121#0200000000000000
(1790000008.600000) vcan0 203#3F00000000000000
(1790000008.620000) vcan0 100#7409000000000000
(1790000008.620000) vcan0 101#502E000000000000
(1790000008.640000) vcan0 100#8109000000000000
(1790000008.640000) vcan0 101#902E000000000000
(1790000008.650000) vcan0 102#8403000000000000
(1790000008.660000) vcan0 100#8F09000000000000
(1790000008.660000) vcan0 101#D02E000000000000
(1790000008.680000) vcan0 100#9C09000000000000
(1790000008.680000) vcan0 101#102F000000000000
(1790000008.700000) vcan0 100#A909000000000000
(1790000008.700000) vcan0 101#502F000000000000
(1790000008.700000) vcan0 102#8403000000000000
(1790000008.700000) vcan0 110#0200000000000000
(1790000008.700000) vcan0 120#0300000000000000
(1790000008.700000) vcan0 203#4000000000000000
(1790000008.720000) vcan0 100#B709000000000000
(1790000008.720000) vcan0 101#902F000000000000
(1790000008.740000) vcan0 100#C409000000000000
(1790000008.740000) vcan0 101#D02F000000000000
(1790000008.750000) vcan0 102#8403000000000000
(1790000008.760000) vcan0 100#D109000000000000
(1790000008.760000) vcan0 101#1030000000000000
(1790000008.780000) vcan0 100#DF09000000000000
(1790000008.780000) vcan0 101#5030000000000000
(1790000008.800000) vcan0 100#EC09000000000000
(1790000008.800000) vcan0 101#9030000000000000
(1790000008.800000) vcan0 102#8403000000000000
(1790000008.800000) vcan0 110#0200000000000000
(1790000008.800000) vcan0 120#0300000000000000
(1790000008.800000) vcan0 121#0200000000000000
(1790000008.800000) vcan0 203#4100000000000000
(1790000008.820000) vcan0 100#F909000000000000
(1790000008.820000) vcan0 101#D030000000000000
(1790000008.840000) vcan0 100#070A000000000000
(1790000008.840000) vcan0 101#1031000000000000
(1790000008.850000) vcan0 102#8403000000000000
(1790000008.860000) vcan0 100#140A000000000000
(1790000008.860000) vcan0 101#5031000000000000
(1790000008.880000) vcan0 100#210A000000000000
(1790000008.880000) vcan0 101#9031000000000000
(1790000008.900000) vcan0 100#2F0A000000000000
(1790000008.900000) vcan0 101#D031000000000000
(1790000008.900000) vcan0 102#8403000000000000
(1790000008.900000) vcan0 110#0200000000000000
(1790000008.900000) vcan0 120#0300000000000000
(1790000008.900000) vcan0 203#4300000000000000
(1790000008.920000) vcan0 100#3C0A000000000000
(1790000008.920000) vcan0 101#1032000000000000
(1790000008.940000) vcan0 100#490A000000000000
(1790000008.940000) vcan0 101#5032000000000000
(1790000008.950000) vcan0 102#8403000000000000
(1790000008.960000) vcan0 100#570A000000000000
(1790000008.960000) vcan0 101#9032000000000000
(1790000008.980000) vcan0 100#640A000000000000
(1790000008.980000) vcan0 101#D032000000000000
(1790000009.000000) vcan0 100#710A000000000000
(1790000009.000000) vcan0 101#1033000000000000
(1790000009.000000) vcan0 102#8403000000000000
(1790000009.000000) vcan0 110#0200000000000000
(1790000009.000000) vcan0 120#0300000000000000
(1790000009.000000) vcan0 121#0200000000000000
(1790000009.000000) vcan0 200#8000000000000000
(1790000009.000000) vcan0 201#8400000000000000
(1790000009.000000) vcan0 202#7C00000000000000
(1790000009.000000) vcan0 203#4400000000000000
(1790000009.000000) vcan0 210#8E00000000000000
(1790000009.000000) vcan0 220#7C00000000000000
(1790000009.000000) vcan0 221#B501000000000000
(1790000009.000000) vcan0 222#4E00000000000000
(1790000009.000000) vcan0 230#94991C0000000000
(1790000009.000000) vcan0 231#B501000000000000
(1790000009.000000) vcan0 232#0019000000000000
(1790000009.000000) vcan0 240#7300000000000000
(1790000009.000000) vcan0 241#7300000000000000
(1790000009.000000) vcan0 242#6E00000000000000
(1790000009.000000) vcan0 243#6E00000000000000
(1790000009.000000) vcan0 18FF0100#7000000000000000
(1790000009.020000) vcan0 100#7F0A000000000000
(1790000009.020000) vcan0 101#5033000000000000
(1790000009.040000) vcan0 100#8C0A000000000000
(1790000009.040000) vcan0 101#9033000000000000
(1790000009.050000) vcan0 102#8403000000000000
(1790000009.060000) vcan0 100#990A000000000000
(1790000009.060000) vcan0 101#D033000000000000
(1790000009.080000) vcan0 100#A70A000000000000
(1790000009.080000) vcan0 101#1034000000000000
(1790000009.100000) vcan0 100#B40A000000000000
(1790000009.100000) vcan0 101#5034000000000000
(1790000009.100000) vcan0 102#8403000000000000
(1790000009.100000) vcan0 110#0200000000000000
(1790000009.100000) vcan0 120#0300000000000000
(1790000009.100000) vcan0 203#4500000000000000
(1790000009.120000) vcan0 100#C10A000000000000
(1790000009.120000) vcan0 101#9034000000000000
(1790000009.140000) vcan0 100#CF0A000000000000
(1790000009.140000) vcan0 101#D034000000000000
(1790000009.150000) vcan0 102#8403000000000000
(1790000009.160000) vcan0 100#DC0A000000000000
(1790000009.160000) vcan0 101#1035000000000000
(1790000009.180000) vcan0 100#E90A000000000000
(1790000009.180000) vcan0 101#5035000000000000
(1790000009.200000) vcan0 100#F70A000000000000
(1790000009.200000) vcan0 101#9035000000000000
(1790000009.200000) vcan0 102#8403000000000000
(1790000009.200000) vcan0 110#0200000000000000
(1790000009.200000) vcan0 120#0300000000000000
(1790000009.200000) vcan0 121#0200000000000000
(1790000009.200000) vcan0 203#4600000000000000
(1790000009.220000) vcan0 100#040B000000000000
(1790000009.220000) vcan0 101#D035000000000000
(1790000009.240000) vcan0 100#110B000000000000
(1790000009.240000) vcan0 101#1036000000000000
(1790000009.250000) vcan0 102#8403000000000000
(1790000009.260000) vcan0 100#1F0B000000000000
(1790000009.260000) vcan0 101#5036000000000000
(1790000009.280000) vcan0 100#2C0B000000000000
(1790000009.280000) vcan0 101#9036000000000000
(1790000009.300000) vcan0 100#390B000000000000
(1790000009.300000) vcan0 101#D036000000000000
(1790000009.300000) vcan0 102#8403000000000000
(1790000009.300000) vcan0 110#0200000000000000
(1790000009.300000) vcan0 120#0300000000000000
(1790000009.300000) vcan0 203#4700000000000000
(1790000009.320000) vcan0 100#470B000000000000
(1790000009.320000) vcan0 101#1037000000000000
(1790000009.340000) vcan0 100#540B000000000000
(1790000009.340000) vcan0 101#5037000000000000
(1790000009.350000) vcan0 102#8403000000000000
(1790000009.360000) vcan0 100#610B000000000000
(1790000009.360000) vcan0 101#9037000000000000
(1790000009.380000) vcan0 100#6F0B000000000000
(1790000009.380000) vcan0 101#D037000000000000
(1790000009.400000) vcan0 100#7C0B000000000000
(1790000009.400000) vcan0 101#1038000000000000
(1790000009.400000) vcan0 102#8403000000000000
(1790000009.400000) vcan0 110#0200000000000000
(1790000009.400000) vcan0 120#0300000000000000
(1790000009.400000) vcan0 121#0200000000000000
(1790000009.400000) vcan0 203#4800000000000000
(1790000009.420000) vcan0 100#890B000000000000
(1790000009.420000) vcan0 101#5038000000000000
(1790000009.440000) vcan0 100#970B000000000000
(1790000009.440000) vcan0 101#9038000000000000
(1790000009.450000) vcan0 102#8403000000000000
(1790000009.460000) vcan0 100#A40B000000000000
(1790000009.460000) vcan0 101#D038000000000000
(1790000009.480000) vcan0 100#B10B000000000000
(1790000009.480000) vcan0 101#1039000000000000
(1790000009.500000) vcan0 100#BF0B000000000000
(1790000009.500000) vcan0 101#5039000000000000
(1790000009.500000) vcan0 102#8403000000000000
(1790000009.500000) vcan0 110#0200000000000000
(1790000009.500000) vcan0 120#0300000000000000
(1790000009.500000) vcan0 200#8000000000000000
(1790000009.500000) vcan0 201#8400000000000000
(1790000009.500000) vcan0 203#4900000000000000
(1790000009.500000) vcan0 210#8E00000000000000
(1790000009.520000) vcan0 100#CC0B000000000000
(1790000009.520000) vcan0 101#9039000000000000
(1790000009.540000) vcan0 100#D90B000000000000
(1790000009.540000) vcan0 101#D039000000000000
(1790000009.550000) vcan0 102#8403000000000000
(1790000009.560000) vcan0 100#E70B000000000000
(1790000009.560000) vcan0 101#103A000000000000
(1790000009.580000) vcan0 100#F40B000000000000
(1790000009.580000) vcan0 101#503A000000000000
(1790000009.600000) vcan0 100#010C000000000000
(1790000009.600000) vcan0 101#903A000000000000
(1790000009.600000) vcan0 102#8403000000000000
(1790000009.600000) vcan0 110#0200000000000000
(1790000009.600000) vcan0 120#0300000000000000
(1790000009.600000) vcan0 121#0200000000000000
(1790000009.600000) vcan0 203#4A00000000000000
(1790000009.620000) vcan0 100#0F0C000000000000
(1790000009.620000) vcan0 101#D03A000000000000
(1790000009.640000) vcan0 100#1C0C000000000000
(1790000009.640000) vcan0 101#103B000000000000
(1790000009.650000) vcan0 102#8403000000000000
(1790000009.660000) vcan0 100#290C000000000000
(1790000009.660000) vcan0 101#503B000000000000
(1790000009.680000) vcan0 100#370C000000000000
(1790000009.680000) vcan0 101#903B000000000000
(1790000009.700000) vcan0 100#440C000000000000
(1790000009.700000) vcan0 101#D03B000000000000
(1790000009.700000) vcan0 102#8403000000000000
(1790000009.700000) vcan0 110#0200000000000000
(1790000009.700000) vcan0 120#0300000000000000
(1790000009.700000) vcan0 203#4B00000000000000
(1790000009.720000) vcan0 100#510C000000000000
(1790000009.720000) vcan0 101#103C000000000000
(1790000009.740000) vcan0 100#5F0C000000000000
(1790000009.740000) vcan0 101#503C000000000000
(1790000009.750000) vcan0 102#8403000000000000
(1790000009.760000) vcan0 100#6C0C000000000000
(1790000009.760000) vcan0 101#903C000000000000
(1790000009.780000) vcan0 100#790C000000000000
(1790000009.780000) vcan0 101#D03C000000000000
(1790000009.800000) vcan0 100#870C000000000000
(1790000009.800000) vcan0 101#103D000000000000
(1790000009.800000) vcan0 102#8403000000000000
(1790000009.800000) vcan0 110#0200000000000000
(1790000009.800000) vcan0 120#0300000000000000
(1790000009.800000) vcan0 121#0200000000000000
(1790000009.800000) vcan0 203#4C00000000000000
(1790000009.820000) vcan0 100#940C000000000000
(1790000009.820000) vcan0 101#503D000000000000
(1790000009.840000) vcan0 100#A10C000000000000
(1790000009.840000) vcan0 101#903D000000000000
(1790000009.850000) vcan0 102#8403000000000000
(1790000009.860000) vcan0 100#AF0C000000000000
(1790000009.860000) vcan0 101#D03D000000000000
(1790000009.880000) vcan0 100#BC0C000000000000
(1790000009.880000) vcan0 101#103E000000000000
(1790000009.900000) vcan0 100#C90C000000000000
(1790000009.900000) vcan0 101#503E000000000000
(1790000009.900000) vcan0 102#8403000000000000
(1790000009.900000) vcan0 110#0200000000000000
(1790000009.900000) vcan0 120#0300000000000000
(1790000009.900000) vcan0 203#4D00000000000000
(1790000009.920000) vcan0 100#D70C000000000000
(1790000009.920000) vcan0 101#903E000000000000
(1790000009.940000) vcan0 100#E40C000000000000
(1790000009.940000) vcan0 101#D03E000000000000
(1790000009.950000) vcan0 102#8403000000000000
(1790000009.960000) vcan0 100#F10C000000000000
(1790000009.960000) vcan0 101#103F000000000000
(1790000009.980000) vcan0 100#FF0C000000000000
(1790000009.980000) vcan0 101#503F000000000000
(1790000010.000000) vcan0 100#0C0D000000000000
(1790000010.000000) vcan0 101#903F000000000000
(1790000010.000000) vcan0 102#8403000000000000
(1790000010.000000) vcan0 110#0200000000000000
(1790000010.000000) vcan0 120#0300000000000000
(1790000010.000000) vcan0 121#0200000000000000
(1790000010.000000) vcan0 200#8000000000000000
(1790000010.000000) vcan0 201#8400000000000000
(1790000010.000000) vcan0 202#7C00000000000000
(1790000010.000000) vcan0 203#4E00000000000000
(1790000010.000000) vcan0 210#8E00000000000000
(1790000010.000000) vcan0 220#7C00000000000000
(1790000010.000000) vcan0 221#B501000000000000
(1790000010.000000) vcan0 222#4E00000000000000
(1790000010.000000) vcan0 230#94991C0000000000
(1790000010.000000) vcan0 231#B501000000000000
(1790000010.000000) vcan0 232#0019000000000000
(1790000010.000000) vcan0 240#7300000000000000
(1790000010.000000) vcan0 241#7300000000000000
(1790000010.000000) vcan0 242#6E00000000000000
(1790000010.000000) vcan0 243#6E00000000000000
(1790000010.000000) vcan0 18FF0100#7000000000000000
(1790000010.020000) vcan0 100#190D000000000000
(1790000010.020000) vcan0 101#D03F000000000000
(1790000010.040000) vcan0 100#270D000000000000
(1790000010.040000) vcan0 101#1040000000000000
(1790000010.050000) vcan0 102#8403000000000000
(1790000010.060000) vcan0 100#340D000000000000
(1790000010.060000) vcan0 101#5040000000000000
(1790000010.080000) vcan0 100#410D000000000000
(1790000010.080000) vcan0 101#9040000000000000
(1790000010.100000) vcan0 100#4F0D000000000000
(1790000010.100000) vcan0 101#D040000000000000
(1790000010.100000) vcan0 102#8403000000000000
(1790000010.100000) vcan0 110#0200000000000000
(1790000010.100000) vcan0 120#0300000000000000
(1790000010.100000) vcan0 203#4F00000000000000
(1790000010.120000) vcan0 100#5C0D000000000000
(1790000010.120000) vcan0 101#1041000000000000
(1790000010.140000) vcan0 100#690D000000000000
(1790000010.140000) vcan0 101#5041000000000000
(1790000010.150000) vcan0 102#8403000000000000
(1790000010.160000) vcan0 100#770D000000000000
(1790000010.160000) vcan0 101#9041000000000000
(1790000010.180000) vcan0 100#840D000000000000
(1790000010.180000) vcan0 101#D041000000000000
(1790000010.200000) vcan0 100#910D000000000000
(1790000010.200000) vcan0 101#1042000000000000
(1790000010.200000) vcan0 102#8403000000000000
(1790000010.200000) vcan0 110#0200000000000000
(1790000010.200000) vcan0 120#0300000000000000
(1790000010.200000) vcan0 121#0200000000000000
(1790000010.200000) vcan0 203#5000000000000000
(1790000010.220000) vcan0 100#9F0D000000000000
(1790000010.220000) vcan0 101#5042000000000000
(1790000010.240000) vcan0 100#AC0D000000000000
(1790000010.240000) vcan0 101#9042000000000000
(1790000010.250000) vcan0 102#8403000000000000
(1790000010.260000) vcan0 100#B90D000000000000
(1790000010.260000) vcan0 101#D042000000000000
(1790000010.280000) vcan0 100#C70D000000000000
(1790000010.280000) vcan0 101#1043000000000000
(1790000010.300000) vcan0 100#D40D000000000000
(1790000010.300000) vcan0 101#5043000000000000
(1790000010.300000) vcan0 102#8403000000000000
(1790000010.300000) vcan0 110#0200000000000000
(1790000010.300000) vcan0 120#0300000000000000
(1790000010.300000) vcan0 203#5100000000000000
(1790000010.320000) vcan0 100#E10D000000000000
(1790000010.320000) vcan0 101#9043000000000000
(1790000010.340000) vcan0 100#EF0D000000000000
(1790000010.340000) vcan0 101#D043000000000000
(1790000010.350000) vcan0 102#8403000000000000
(1790000010.360000) vcan0 100#FC0D000000000000
(1790000010.360000) vcan0 101#1044000000000000
(1790000010.380000) vcan0 100#090E000000000000
(1790000010.380000) vcan0 101#5044000000000000
(1790000010.400000) vcan0 100#170E000000000000
(1790000010.400000) vcan0 101#9044000000000000
(1790000010.400000) vcan0 102#8403000000000000
(1790000010.400000) vcan0 110#0200000000000000
(1790000010.400000) vcan0 120#0300000000000000
(1790000010.400000) vcan0 121#0200000000000000
(1790000010.400000) vcan0 203#5300000000000000
(1790000010.420000) vcan0 100#240E000000000000
(1790000010.420000) vcan0 101#D044000000000000
(1790000010.440000) vcan0 100#310E000000000000
(1790000010.440000) vcan0 101#1045000000000000
(1790000010.450000) vcan0 102#8403000000000000
(1790000010.460000) vcan0 100#3F0E000000000000
(1790000010.460000) vcan0 101#5045000000000000
(1790000010.480000) vcan0 100#4C0E000000000000
(1790000010.480000) vcan0 101#9045000000000000
(1790000010.500000) vcan0 100#590E000000000000
(1790000010.500000) vcan0 101#D045000000000000
(1790000010.500000) vcan0 102#8403000000000000
(1790000010.500000) vcan0 110#0200000000000000
(1790000010.500000) vcan0 120#0300000000000000
(1790000010.500000) vcan0 200#8000000000000000
(1790000010.500000) vcan0 201#8400000000000000
(1790000010.500000) vcan0 203#5400000000000000
(1790000010.500000) vcan0 210#8E00000000000000
(1790000010.520000) vcan0 100#670E000000000000
(1790000010.520000) vcan0 101#1046000000000000
(1790000010.540000) vcan0 100#740E000000000000
(1790000010.540000) vcan0 101#5046000000000000
(1790000010.550000) vcan0 102#8403000000000000
(1790000010.560000) vcan0 100#810E000000000000
(1790000010.560000) vcan0 101#9046000000000000
(1790000010.580000) vcan0 100#8F0E000000000000
(1790000010.580000) vcan0 101#D046000000000000
(1790000010.600000) vcan0 100#9C0E000000000000
(1790000010.600000) vcan0 101#1047000000000000
(1790000010.600000) vcan0 102#8403000000000000
(1790000010.600000) vcan0 110#0200000000000000
(1790000010.600000) vcan0 120#0300000000000000
(1790000010.600000) vcan0 121#0200000000000000
(1790000010.600000) vcan0 203#5500000000000000
(1790000010.620000) vcan0 100#A90E000000000000
(1790000010.620000) vcan0 101#5047000000000000
(1790000010.640000) vcan0 100#B70E000000000000
(1790000010.640000) vcan0 101#9047000000000000
(1790000010.650000) vcan0 102#8403000000000000
(1790000010.660000) vcan0 100#C40E000000000000
(1790000010.660000) vcan0 101#D047000000000000
(1790000010.680000) vcan0 100#D10E000000000000
(1790000010.680000) vcan0 101#1048000000000000
(1790000010.700000) vcan0 100#DF0E000000000000
(1790000010.700000) vcan0 101#5048000000000000
(1790000010.700000) vcan0 102#8403000000000000
(1790000010.700000) vcan0 110#0200000000000000
(1790000010.700000) vcan0 120#0300000000000000
(1790000010.700000) vcan0 203#5600000000000000
(1790000010.720000) vcan0 100#EC0E000000000000
(1790000010.720000) vcan0 101#9048000000000000
(1790000010.740000) vcan0 100#F90E000000000000
(1790000010.740000) vcan0 101#D048000000000000
(1790000010.750000) vcan0 102#8403000000000000
(1790000010.760000) vcan0 100#070F000000000000
(1790000010.760000) vcan0 101#1049000000000000
(1790000010.780000) vcan0 100#140F000000000000
(1790000010.780000) vcan0 101#5049000000000000
(1790000010.800000) vcan0 100#210F000000000000
(1790000010.800000) vcan0 101#9049000000000000
(1790000010.800000) vcan0 102#8403000000000000
(1790000010.800000) vcan0 110#0200000000000000
(1790000010.800000) vcan0 120#0300000000000000
(1790000010.800000) vcan0 121#0200000000000000
(1790000010.800000) vcan0 203#5700000000000000
(1790000010.820000) vcan0 100#2F0F000000000000
(1790000010.820000) vcan0 101#D049000000000000
(1790000010.840000) vcan0 100#3C0F000000000000
(1790000010.840000) vcan0 101#104A000000000000
(1790000010.850000) vcan0 102#8403000000000000
(1790000010.860000) vcan0 100#490F000000000000
(1790000010.860000) vcan0 101#504A000000000000
(1790000010.880000) vcan0 100#570F000000000000
(1790000010.880000) vcan0 101#904A000000000000
(1790000010.900000) vcan0 100#640F000000000000
(1790000010.900000) vcan0 101#D04A000000000000
(1790000010.900000) vcan0 102#8403000000000000
(1790000010.900000) vcan0 110#0200000000000000
(1790000010.900000) vcan0 120#0300000000000000
(1790000010.900000) vcan0 203#5800000000000000
(1790000010.920000) vcan0 100#710F000000000000
(1790000010.920000) vcan0 101#104B000000000000
(1790000010.940000) vcan0 100#7F0F000000000000
(1790000010.940000) vcan0 101#504B000000000000
(1790000010.950000) vcan0 102#8403000000000000
(1790000010.960000) vcan0 100#8C0F000000000000
(1790000010.960000) vcan0 101#904B000000000000
(1790000010.980000) vcan0 100#990F000000000000
(1790000010.980000) vcan0 101#D04B000000000000
(1790000011.000000) vcan0 100#A70F000000000000
(1790000011.000000) vcan0 101#104C000000000000
(1790000011.000000) vcan0 102#8403000000000000
(1790000011.000000) vcan0 110#0200000000000000
(1790000011.000000) vcan0 120#0300000000000000
(1790000011.000000) vcan0 121#0200000000000000
(1790000011.000000) vcan0 200#8000000000000000
(1790000011.000000) vcan0 201#8400000000000000
(1790000011.000000) vcan0 202#7C00000000000000
(1790000011.000000) vcan0 203#5900000000000000
(1790000011.000000) vcan0 210#8E00000000000000
(1790000011.000000) vcan0 220#7C00000000000000
(1790000011.000000) vcan0 221#B501000000000000
(1790000011.000000) vcan0 222#4E00000000000000
(1790000011.000000) vcan0 230#94991C0000000000
(1790000011.000000) vcan0 231#B501000000000000
(1790000011.000000) vcan0 232#0019000000000000
(1790000011.000000) vcan0 240#7300000000000000
(1790000011.000000) vcan0 241#7300000000000000
(1790000011.000000) vcan0 242#6E00000000000000
(1790000011.000000) vcan0 243#6E00000000000000
(1790000011.000000) vcan0 18FF0100#7000000000000000
(1790000011.020000) vcan0 100#B40F000000000000
(1790000011.020000) vcan0 101#504C000000000000
(1790000011.040000) vcan0 100#C10F000000000000
(1790000011.040000) vcan0 101#904C000000000000
(1790000011.050000) vcan0 102#8403000000000000
(1790000011.060000) vcan0 100#CF0F000000000000
(1790000011.060000) vcan0 101#D04C000000000000
(1790000011.080000) vcan0 100#DC0F000000000000
(1790000011.080000) vcan0 101#104D000000000000
(1790000011.100000) vcan0 100#E90F000000000000
(1790000011.100000) vcan0 101#504D000000000000
(1790000011.100000) vcan0 102#8403000000000000
(1790000011.100000) vcan0 110#0200000000000000
(1790000011.100000) vcan0 120#0300000000000000
(1790000011.100000) vcan0 203#5A00000000000000
(1790000011.120000) vcan0 100#F70F000000000000
(1790000011.120000) vcan0 101#904D000000000000
(1790000011.140000) vcan0 100#0410000000000000
(1790000011.140000) vcan0 101#D04D000000000000
(1790000011.150000) vcan0 102#8403000000000000
(1790000011.160000) vcan0 100#1110000000000000
(1790000011.160000) vcan0 101#104E000000000000
(1790000011.180000) vcan0 100#1F10000000000000
(1790000011.180000) vcan0 101#504E000000000000
(1790000011.200000) vcan0 100#2C10000000000000
(1790000011.200000) vcan0 101#904E000000000000
(1790000011.200000) vcan0 102#8403000000000000
(1790000011.200000) vcan0 110#0200000000000000
(1790000011.200000) vcan0 120#0300000000000000
(1790000011.200000) vcan0 121#0200000000000000
(1790000011.200000) vcan0 203#5B00000000000000
(1790000011.220000) vcan0 100#3910000000000000
(1790000011.220000) vcan0 101#D04E000000000000
(1790000011.240000) vcan0 100#4710000000000000
(1790000011.240000) vcan0 101#104F000000000000
(1790000011.250000) vcan0 102#8403000000000000
(1790000011.260000) vcan0 100#5410000000000000
(1790000011.260000) vcan0 101#504F000000000000
(1790000011.280000) vcan0 100#6110000000000000
(1790000011.280000) vcan0 101#904F000000000000
(1790000011.300000) vcan0 100#6F10000000000000
(1790000011.300000) vcan0 101#D04F000000000000
(1790000011.300000) vcan0 102#8403000000000000
(1790000011.300000) vcan0 110#0200000000000000
(1790000011.300000) vcan0 120#0300000000000000
(1790000011.300000) vcan0 203#5C00000000000000
(1790000011.320000) vcan0 100#7C10000000000000
(1790000011.320000) vcan0 101#1050000000000000
(1790000011.340000) vcan0 100#8910000000000000
(1790000011.340000) vcan0 101#5050000000000000
(1790000011.350000) vcan0 102#8403000000000000
(1790000011.360000) vcan0 100#9710000000000000
(1790000011.360000) vcan0 101#9050000000000000
(1790000011.380000) vcan0 100#A410000000000000
(1790000011.380000) vcan0 101#D050000000000000
(1790000011.400000) vcan0 100#B110000000000000
(1790000011.400000) vcan0 101#1051000000000000
(1790000011.400000) vcan0 102#8403000000000000
(1790000011.400000) vcan0 110#0200000000000000
(1790000011.400000) vcan0 120#0300000000000000
(1790000011.400000) vcan0 121#0200000000000000
(1790000011.400000) vcan0 203#5D00000000000000
(1790000011.420000) vcan0 100#BF10000000000000
(1790000011.420000) vcan0 101#5051000000000000
(1790000011.440000) vcan0 100#CC10000000000000
(1790000011.440000) vcan0 101#9051000000000000
(1790000011.450000) vcan0 102#8403000000000000
(1790000011.460000) vcan0 100#D910000000000000
(1790000011.460000) vcan0 101#D051000000000000
(1790000011.480000) vcan0 100#E710000000000000
(1790000011.480000) vcan0 101#1052000000000000
(1790000011.500000) vcan0 100#F410000000000000
(1790000011.500000) vcan0 101#5052000000000000
(1790000011.500000) vcan0 102#8403000000000000
(1790000011.500000) vcan0 110#0200000000000000
(1790000011.500000) vcan0 120#0300000000000000
(1790000011.500000) vcan0 200#8000000000000000
(1790000011.500000) vcan0 201#8400000000000000
(1790000011.500000) vcan0 203#5E00000000000000
(1790000011.500000) vcan0 210#8E00000000000000
(1790000011.520000) vcan0 100#0111000000000000
(1790000011.520000) vcan0 101#9052000000000000
(1790000011.540000) vcan0 100#0F11000000000000
(1790000011.540000) vcan0 101#D052000000000000
(1790000011.550000) vcan0 102#8403000000000000
(1790000011.560000) vcan0 100#1C11000000000000
(1790000011.560000) vcan0 101#1053000000000000
(1790000011.580000) vcan0 100#2911000000000000
(1790000011.580000) vcan0 101#5053000000000000
(1790000011.600000) vcan0 100#3711000000000000
(1790000011.600000) vcan0 101#502A000000000000
(1790000011.600000) vcan0 102#8403000000000000
(1790000011.600000) vcan0 110#0300000000000000
(1790000011.600000) vcan0 120#0300000000000000
(1790000011.600000) vcan0 121#0200000000000000
(1790000011.600000) vcan0 203#3C00000000000000
(1790000011.620000) vcan0 100#4411000000000000
(1790000011.620000) vcan0 101#902A000000000000
(1790000011.640000) vcan0 100#5111000000000000
(1790000011.640000) vcan0 101#D02A000000000000
(1790000011.650000) vcan0 102#8403000000000000
(1790000011.660000) vcan0 100#5F11000000000000
(1790000011.660000) vcan0 101#102B000000000000
(1790000011.680000) vcan0 100#6C11000000000000
(1790000011.680000) vcan0 101#502B000000000000
(1790000011.700000) vcan0 100#7911000000000000
(1790000011.700000) vcan0 101#902B000000000000
(1790000011.700000) vcan0 102#8403000000000000
(1790000011.700000) vcan0 110#0300000000000000
(1790000011.700000) vcan0 120#0300000000000000
(1790000011.700000) vcan0 203#3D00000000000000
(1790000011.720000) vcan0 100#8711000000000000
(1790000011.720000) vcan0 101#D02B000000000000
(1790000011.740000) vcan0 100#9411000000000000
(1790000011.740000) vcan0 101#102C000000000000
(1790000011.750000) vcan0 102#8403000000000000
(1790000011.760000) vcan0 100#A111000000000000
(1790000011.760000) vcan0 101#502C000000000000
(1790000011.780000) vcan0 100#AF11000000000000
(1790000011.780000) vcan0 101#902C000000000000
(1790000011.800000) vcan0 100#BC11000000000000
(1790000011.800000) vcan0 101#D02C000000000000
(1790000011.800000) vcan0 102#8403000000000000
(1790000011.800000) vcan0 110#0300000000000000
(1790000011.800000) vcan0 120#0300000000000000
(1790000011.800000) vcan0 121#0200000000000000
(1790000011.800000) vcan0 203#3E00000000000000
(1790000011.820000) vcan0 100#C911000000000000
(1790000011.820000) vcan0 101#102D000000000000
(1790000011.840000) vcan0 100#D711000000000000
(1790000011.840000) vcan0 101#502D000000000000
(1790000011.850000) vcan0 102#8403000000000000
(1790000011.860000) vcan0 100#E411000000000000
(1790000011.860000) vcan0 101#902D000000000000
(1790000011.880000) vcan0 100#F111000000000000
(1790000011.880000) vcan0 101#D02D000000000000
(1790000011.900000) vcan0 100#FF11000000000000
(1790000011.900000) vcan0 101#102E000000000000
(1790000011.900000) vcan0 102#8403000000000000
(1790000011.900000) vcan0 110#0300000000000000
(1790000011.900000) vcan0 120#0300000000000000
(1790000011.900000) vcan0 203#3F00000000000000
(1790000011.920000) vcan0 100#0C12000000000000
(1790000011.920000) vcan0 101#502E000000000000
(1790000011.940000) vcan0 100#1912000000000000
(1790000011.940000) vcan0 101#902E000000000000
(1790000011.950000) vcan0 102#8403000000000000
(1790000011.960000) vcan0 100#2712000000000000
(1790000011.960000) vcan0 101#D02E000000000000
(1790000011.980000) vcan0 100#3412000000000000
(1790000011.980000) vcan0 101#102F000000000000
(1790000012.000000) vcan0 100#4112000000000000
(1790000012.000000) vcan0 101#502F000000000000
(1790000012.000000) vcan0 102#8403000000000000
(1790000012.000000) vcan0 110#0300000000000000
(1790000012.000000) vcan0 120#0300000000000000
(1790000012.000000) vcan0 121#0200000000000000
(1790000012.000000) vcan0 200#8000000000000000
(1790000012.000000) vcan0 201#8400000000000000
(1790000012.000000) vcan0 202#7C00000000000000
(1790000012.000000) vcan0 203#4000000000000000
(1790000012.000000) vcan0 210#8E00000000000000
(1790000012.000000) vcan0 220#7C00000000000000
(1790000012.000000) vcan0 221#B501000000000000
(1790000012.000000) vcan0 222#4E00000000000000
(1790000012.000000) vcan0 230#94991C0000000000
(1790000012.000000) vcan0 231#B501000000000000
(1790000012.000000) vcan0 232#0019000000000000
(1790000012.000000) vcan0 240#7300000000000000
(1790000012.000000) vcan0 241#7300000000000000
(1790000012.000000) vcan0 242#6E00000000000000
(1790000012.000000) vcan0 243#6E00000000000000
(1790000012.000000) vcan0 18FF0100#7000000000000000
(1790000012.020000) vcan0 100#4F12000000000000
(1790000012.020000) vcan0 101#902F000000000000
(1790000012.040000) vcan0 100#5C12000000000000
(1790000012.040000) vcan0 101#D02F000000000000
(1790000012.050000) vcan0 102#8403000000000000
(1790000012.060000) vcan0 100#6912000000000000
(1790000012.060000) vcan0 101#1030000000000000
(1790000012.080000) vcan0 100#7712000000000000
(1790000012.080000) vcan0 101#5030000000000000
(1790000012.100000) vcan0 100#8412000000000000
(1790000012.100000) vcan0 101#9030000000000000
(1790000012.100000) vcan0 102#8403000000000000
(1790000012.100000) vcan0 110#0300000000000000
(1790000012.100000) vcan0 120#0300000000000000
(1790000012.100000) vcan0 203#4100000000000000
(1790000012.120000) vcan0 100#9112000000000000
(1790000012.120000) vcan0 101#D030000000000000
(1790000012.140000) vcan0 100#9F12000000000000
(1790000012.140000) vcan0 101#1031000000000000
(1790000012.150000) vcan0 102#8403000000000000
(1790000012.160000) vcan0 100#AC12000000000000
(1790000012.160000) vcan0 101#5031000000000000
(1790000012.180000) vcan0 100#B912000000000000
(1790000012.180000) vcan0 101#9031000000000000
(1790000012.200000) vcan0 100#C712000000000000
(1790000012.200000) vcan0 101#D031000000000000
(1790000012.200000) vcan0 102#8403000000000000
(1790000012.200000) vcan0 110#0300000000000000
